# vsim -c -assertdebug -fsmdebug -coverage -msgmode both work.tb_opt "+random_test" "+sv_seed=400" "+wait_state=1" "+no_of_wait_cycles=2" "+freq=50" -do "add wave -r /*; run -all" 
# Start time: 15:36:56 on May 12,2025
# //  Questa Sim
# //  Version 2021.2_1 linux May 15 2021
# //
# //  Copyright 1991-2021 Mentor Graphics Corporation
# //  All Rights Reserved.
# //
# //  QuestaSim and its associated documentation contain trade
# //  secrets and commercial or financial information that are the property of
# //  Mentor Graphics Corporation and are privileged, confidential,
# //  and exempt from disclosure under the Freedom of Information Act,
# //  5 U.S.C. Section 552. Furthermore, this information
# //  is prohibited from disclosure under the Trade Secrets Act,
# //  18 U.S.C. Section 1905.
# //
# Loading sv_std.std
# Loading work.apb_slave_if(fast)
# Loading work.file_pkg(fast)
# ** Warning: (vsim-PLI-3691) Expected a system task, not a system function '$value$plusargs'.
#    Time: 0 ns  Iteration: 0  Region: /file_pkg::apb_slave_environment::new File: ../SV/apb_slave_environment.sv Line: 23
# ** Warning: (vsim-PLI-3691) Expected a system task, not a system function '$value$plusargs'.
#    Time: 0 ns  Iteration: 0  Region: /file_pkg::apb_slave_environment::new File: ../SV/apb_slave_environment.sv Line: 26
# Loading work.my_pkg(fast)
# Loading work.test_pkg(fast)
# Loading work.tb_sv_unit(fast)
# Loading work.tb(fast)
# Loading work.apb_slave_if(fast__2)
# ** Warning: (vsim-8441) Clocking block output vif.slave_cb.PRDATA is not legal in this
# or another expression.
#    Time: 0 ns  Iteration: 0  Region: /file_pkg File: ../SV/apb_slave_driver.sv Line: 27
# ** Warning: (vsim-8441) Clocking block output vif.slave_cb.PREADY is not legal in this
# or another expression.
#    Time: 0 ns  Iteration: 0  Region: /file_pkg File: ../SV/apb_slave_driver.sv Line: 26
# ** Warning: (vsim-8441) Clocking block output vif.slave_cb.PSLVERR is not legal in this
# or another expression.
#    Time: 0 ns  Iteration: 0  Region: /file_pkg File: ../SV/apb_slave_driver.sv Line: 28
# ** Warning: (vsim-8441) Clocking block output vif.master_cb.PENABLE is not legal in this
# or another expression.
#    Time: 0 ns  Iteration: 0  Region: /my_pkg File: ../testcases/test_lib.sv Line: 34
# ** Warning: (vsim-8441) Clocking block output vif.master_cb.PSEL is not legal in this
# or another expression.
#    Time: 0 ns  Iteration: 0  Region: /my_pkg File: ../testcases/test_lib.sv Line: 33
# ** Warning: (vsim-8441) Clocking block output vif.master_cb.PSTRB is not legal in this
# or another expression.
#    Time: 0 ns  Iteration: 0  Region: /my_pkg File: ../testcases/test_lib.sv Line: 38
# ** Warning: (vsim-8492) The -assertdebug option was specified but there are no accessible objects.
# ** Warning: (vsim-8634) Code was not compiled with coverage options.
# add wave -r /*
#  run -all
# ** Info: freq = 50.00 MHz, clk_period = 20.00 ns
#    Time: 0 ns  Scope: tb File: ../top/tb.sv Line: 23
# [wait_state] : 1
# [no_of_wait_cycles] : 2
# [gen] : executes at 0
# [wait_state] : 1,no.of_wait_cycles : 2
# || [PWRITE = 1],[PADDR = 218],[PWDATA = d6dadb44],[PSTRB = a] ||
# [drv_IDLE] : [30] : || [PSEL = 0],[PENABLE = 0],[PREADY = 0],[PWRITE = 0],[PADDR = 0],[PWDATA = 0],[PRDATA = 0],[PSLVERR = 0] ||
# --------------------------------------------------------------------------------------------------------------------
# [IDLE_t] :|| [psel = 0],[penable = 0],[pready = 0] ||, at 30
# ----------------------------------------------------------------------------------------------------------
# ** Info: assertion passed
#    Time: 30 ns Started: 30 ns  Scope: tb.vif.a4 File: ../SV/interface.sv Line: 91
# ** Info: assertion passed
#    Time: 30 ns Started: 30 ns  Scope: tb.vif.a2 File: ../SV/interface.sv Line: 71
# [drv_IDLE] : [50] : || [PSEL = 0],[PENABLE = 0],[PREADY = 0],[PWRITE = 0],[PADDR = 0],[PWDATA = 0],[PRDATA = 0],[PSLVERR = 0] ||
# --------------------------------------------------------------------------------------------------------------------
# [SETUP_t] : || [psel = 1],[penable = 0],[pready = 0],[PSTRB = a] ||, at 50
# ----------------------------------------------------------------------------------------------------------
# ** Info: assertion passed
#    Time: 50 ns Started: 50 ns  Scope: tb.vif.a4 File: ../SV/interface.sv Line: 91
# ** Info: assertion passed
#    Time: 50 ns Started: 50 ns  Scope: tb.vif.a2 File: ../SV/interface.sv Line: 71
# [drv_IDLE] : [70] : || [PSEL = 1],[PENABLE = 0],[PREADY = 0],[PWRITE = 1],[PADDR = 218],[PWDATA = d6dadb44],[PRDATA = 0],[PSLVERR = 0] ||
# --------------------------------------------------------------------------------------------------------------------
# ** Info: assertion passed
#    Time: 70 ns Started: 70 ns  Scope: tb.vif.a5 File: ../SV/interface.sv Line: 100
# [drv_SETUP] : [90] : || [PSEL = 1],[PENABLE = 1],[PREADY = 0],[PWRITE = 1],[PADDR = 218],[PWDATA = d6dadb44],[PRDATA = 0],[PSLVERR = 0] ||
# --------------------------------------------------------------------------------------------------------------------
# ** Info: assertion passed
#    Time: 90 ns Started: 90 ns  Scope: tb.vif.a6 File: ../SV/interface.sv Line: 108
# ** Info: assertion passed
#    Time: 90 ns Started: 90 ns  Scope: tb.vif.a9 File: ../SV/interface.sv Line: 132
# ** Info: assertion passed
#    Time: 90 ns Started: 90 ns  Scope: tb.vif.a5 File: ../SV/interface.sv Line: 100
# ** Info: assertion passed
#    Time: 110 ns Started: 110 ns  Scope: tb.vif.a6 File: ../SV/interface.sv Line: 108
# ** Info: assertion passed
#    Time: 110 ns Started: 110 ns  Scope: tb.vif.a9 File: ../SV/interface.sv Line: 132
# ** Info: assertion passed
#    Time: 110 ns Started: 110 ns  Scope: tb.vif.a5 File: ../SV/interface.sv Line: 100
# ** Info: assertion passed
#    Time: 130 ns Started: 130 ns  Scope: tb.vif.a6 File: ../SV/interface.sv Line: 108
# ** Info: assertion passed
#    Time: 130 ns Started: 130 ns  Scope: tb.vif.a9 File: ../SV/interface.sv Line: 132
# ** Info: assertion passed
#    Time: 130 ns Started: 130 ns  Scope: tb.vif.a5 File: ../SV/interface.sv Line: 100
# [drv_ACCESS_WR] : [150] : || [PSEL = 1],[PENABLE = 1],[PREADY = 1],[PWRITE = 1],[PADDR = 218],[PWDATA = 0],[PSLVERR = 0] ||
# ** Info: assertion passed
#    Time: 150 ns Started: 150 ns  Scope: tb.vif.a6 File: ../SV/interface.sv Line: 108
# ** Info: assertion passed
#    Time: 150 ns Started: 150 ns  Scope: tb.vif.a9 File: ../SV/interface.sv Line: 132
# ** Info: assertion passed
#    Time: 150 ns Started: 150 ns  Scope: tb.vif.a5 File: ../SV/interface.sv Line: 100
# [drv_ACCESS] : [170] : || [PSEL = 1],[PENABLE = 1],[PREADY = 0],[PWRITE = 1],[PADDR = 218],[PWDATA = d6dadb44],[PRDATA = 0],[PSLVERR = 0] ||
# --------------------------------------------------------------------------------------------------------------------
# [mon] : [170] : [count_m] = {1},|| [PSEL = 1],[PENABLE = 1],[PREADY = 1],[PWRITE = 1],[PADDR = 218],[PWDATA = d6dadb44],[PSLVERR = 0],[PSTRB = a] ||
# [access_t]  : || [psel = 1],[penable = 0],[pready = 1] ||, at 170
# || [PWRITE = 1],[PADDR = 30c],[PWDATA = 543e29a2],[PSTRB = c] ||
# [scb] : data received from monitor at 170 count = 1
# ** Info: [170] : PWRITE = 1,PSLVERR = 0,PADDR = 218,PWDATA = d6dadb44,PRDATA = x,PSTRB = a
#    Time: 170 ns  Scope: file_pkg.apb_slave_transaction.display File: ../SV/apb_slave_transaction.sv Line: 20
# ________________________________
# [scb] : [170] ==> [wr_count_scb] = {1}  write operation done successfully
# [pass_count = 0],[fail_count = 0]
# ** Info: assertion passed
#    Time: 170 ns Started: 170 ns  Scope: tb.vif.a7 File: ../SV/interface.sv Line: 115
# ** Info: assertion passed
#    Time: 170 ns Started: 170 ns  Scope: tb.vif.a6 File: ../SV/interface.sv Line: 108
# ** Info: assertion passed
#    Time: 170 ns Started: 170 ns  Scope: tb.vif.a5 File: ../SV/interface.sv Line: 100
# [drv_ACCESS] : [190] : || [PSEL = 1],[PENABLE = 0],[PREADY = 0],[PWRITE = 1],[PADDR = 218],[PWDATA = d6dadb44],[PRDATA = 0],[PSLVERR = 0] ||
# --------------------------------------------------------------------------------------------------------------------
# [SETUP_t] : || [psel = 1],[penable = 0],[pready = 0],[PSTRB = c] ||, at 190
# ----------------------------------------------------------------------------------------------------------
# ** Info: assertion passed
#    Time: 190 ns Started: 170 ns  Scope: tb.vif.a3 File: ../SV/interface.sv Line: 84
# ** Info: assertion passed
#    Time: 190 ns Started: 190 ns  Scope: tb.vif.a5 File: ../SV/interface.sv Line: 100
# [drv_SETUP] : [210] : || [PSEL = 1],[PENABLE = 0],[PREADY = 0],[PWRITE = 1],[PADDR = 30c],[PWDATA = 543e29a2],[PRDATA = 0],[PSLVERR = 0] ||
# --------------------------------------------------------------------------------------------------------------------
# ** Info: assertion passed
#    Time: 210 ns Started: 210 ns  Scope: tb.vif.a5 File: ../SV/interface.sv Line: 100
# [drv_SETUP] : [230] : || [PSEL = 1],[PENABLE = 1],[PREADY = 0],[PWRITE = 1],[PADDR = 30c],[PWDATA = 543e29a2],[PRDATA = 0],[PSLVERR = 0] ||
# --------------------------------------------------------------------------------------------------------------------
# ** Info: assertion passed
#    Time: 230 ns Started: 230 ns  Scope: tb.vif.a6 File: ../SV/interface.sv Line: 108
# ** Info: assertion passed
#    Time: 230 ns Started: 230 ns  Scope: tb.vif.a9 File: ../SV/interface.sv Line: 132
# ** Info: assertion passed
#    Time: 230 ns Started: 230 ns  Scope: tb.vif.a5 File: ../SV/interface.sv Line: 100
# ** Info: assertion passed
#    Time: 250 ns Started: 250 ns  Scope: tb.vif.a6 File: ../SV/interface.sv Line: 108
# ** Info: assertion passed
#    Time: 250 ns Started: 250 ns  Scope: tb.vif.a9 File: ../SV/interface.sv Line: 132
# ** Info: assertion passed
#    Time: 250 ns Started: 250 ns  Scope: tb.vif.a5 File: ../SV/interface.sv Line: 100
# ** Info: assertion passed
#    Time: 270 ns Started: 270 ns  Scope: tb.vif.a6 File: ../SV/interface.sv Line: 108
# ** Info: assertion passed
#    Time: 270 ns Started: 270 ns  Scope: tb.vif.a9 File: ../SV/interface.sv Line: 132
# ** Info: assertion passed
#    Time: 270 ns Started: 270 ns  Scope: tb.vif.a5 File: ../SV/interface.sv Line: 100
# [drv_ACCESS_WR] : [290] : || [PSEL = 1],[PENABLE = 1],[PREADY = 1],[PWRITE = 1],[PADDR = 30c],[PWDATA = 0],[PSLVERR = 0] ||
# ** Info: assertion passed
#    Time: 290 ns Started: 290 ns  Scope: tb.vif.a6 File: ../SV/interface.sv Line: 108
# ** Info: assertion passed
#    Time: 290 ns Started: 290 ns  Scope: tb.vif.a9 File: ../SV/interface.sv Line: 132
# ** Info: assertion passed
#    Time: 290 ns Started: 290 ns  Scope: tb.vif.a5 File: ../SV/interface.sv Line: 100
# [drv_ACCESS] : [310] : || [PSEL = 1],[PENABLE = 1],[PREADY = 0],[PWRITE = 1],[PADDR = 30c],[PWDATA = 543e29a2],[PRDATA = 0],[PSLVERR = 0] ||
# --------------------------------------------------------------------------------------------------------------------
# [mon] : [310] : [count_m] = {2},|| [PSEL = 1],[PENABLE = 1],[PREADY = 1],[PWRITE = 1],[PADDR = 30c],[PWDATA = 543e29a2],[PSLVERR = 0],[PSTRB = c] ||
# [access_t]  : || [psel = 1],[penable = 0],[pready = 1] ||, at 310
# || [PWRITE = 1],[PADDR = 332],[PWDATA = b108ecd7],[PSTRB = b] ||
# [scb] : data received from monitor at 310 count = 2
# ** Info: [310] : PWRITE = 1,PSLVERR = 0,PADDR = 30c,PWDATA = 543e29a2,PRDATA = x,PSTRB = c
#    Time: 310 ns  Scope: file_pkg.apb_slave_transaction.display File: ../SV/apb_slave_transaction.sv Line: 20
# ________________________________
# [scb] : [310] ==> [wr_count_scb] = {2}  write operation done successfully
# [pass_count = 0],[fail_count = 0]
# ** Info: assertion passed
#    Time: 310 ns Started: 310 ns  Scope: tb.vif.a7 File: ../SV/interface.sv Line: 115
# ** Info: assertion passed
#    Time: 310 ns Started: 310 ns  Scope: tb.vif.a6 File: ../SV/interface.sv Line: 108
# ** Info: assertion passed
#    Time: 310 ns Started: 310 ns  Scope: tb.vif.a5 File: ../SV/interface.sv Line: 100
# [drv_ACCESS] : [330] : || [PSEL = 1],[PENABLE = 0],[PREADY = 0],[PWRITE = 1],[PADDR = 30c],[PWDATA = 543e29a2],[PRDATA = 0],[PSLVERR = 0] ||
# --------------------------------------------------------------------------------------------------------------------
# [SETUP_t] : || [psel = 1],[penable = 0],[pready = 0],[PSTRB = b] ||, at 330
# ----------------------------------------------------------------------------------------------------------
# ** Info: assertion passed
#    Time: 330 ns Started: 310 ns  Scope: tb.vif.a3 File: ../SV/interface.sv Line: 84
# ** Info: assertion passed
#    Time: 330 ns Started: 330 ns  Scope: tb.vif.a5 File: ../SV/interface.sv Line: 100
# [drv_SETUP] : [350] : || [PSEL = 1],[PENABLE = 0],[PREADY = 0],[PWRITE = 1],[PADDR = 332],[PWDATA = b108ecd7],[PRDATA = 0],[PSLVERR = 0] ||
# --------------------------------------------------------------------------------------------------------------------
# ** Info: assertion passed
#    Time: 350 ns Started: 350 ns  Scope: tb.vif.a5 File: ../SV/interface.sv Line: 100
# [drv_SETUP] : [370] : || [PSEL = 1],[PENABLE = 1],[PREADY = 0],[PWRITE = 1],[PADDR = 332],[PWDATA = b108ecd7],[PRDATA = 0],[PSLVERR = 0] ||
# --------------------------------------------------------------------------------------------------------------------
# ** Info: assertion passed
#    Time: 370 ns Started: 370 ns  Scope: tb.vif.a6 File: ../SV/interface.sv Line: 108
# ** Info: assertion passed
#    Time: 370 ns Started: 370 ns  Scope: tb.vif.a9 File: ../SV/interface.sv Line: 132
# ** Info: assertion passed
#    Time: 370 ns Started: 370 ns  Scope: tb.vif.a5 File: ../SV/interface.sv Line: 100
# ** Info: assertion passed
#    Time: 390 ns Started: 390 ns  Scope: tb.vif.a6 File: ../SV/interface.sv Line: 108
# ** Info: assertion passed
#    Time: 390 ns Started: 390 ns  Scope: tb.vif.a9 File: ../SV/interface.sv Line: 132
# ** Info: assertion passed
#    Time: 390 ns Started: 390 ns  Scope: tb.vif.a5 File: ../SV/interface.sv Line: 100
# ** Info: assertion passed
#    Time: 410 ns Started: 410 ns  Scope: tb.vif.a6 File: ../SV/interface.sv Line: 108
# ** Info: assertion passed
#    Time: 410 ns Started: 410 ns  Scope: tb.vif.a9 File: ../SV/interface.sv Line: 132
# ** Info: assertion passed
#    Time: 410 ns Started: 410 ns  Scope: tb.vif.a5 File: ../SV/interface.sv Line: 100
# [drv_ACCESS_WR] : [430] : || [PSEL = 1],[PENABLE = 1],[PREADY = 1],[PWRITE = 1],[PADDR = 332],[PWDATA = 0],[PSLVERR = 0] ||
# ** Info: assertion passed
#    Time: 430 ns Started: 430 ns  Scope: tb.vif.a6 File: ../SV/interface.sv Line: 108
# ** Info: assertion passed
#    Time: 430 ns Started: 430 ns  Scope: tb.vif.a9 File: ../SV/interface.sv Line: 132
# ** Info: assertion passed
#    Time: 430 ns Started: 430 ns  Scope: tb.vif.a5 File: ../SV/interface.sv Line: 100
# [drv_ACCESS] : [450] : || [PSEL = 1],[PENABLE = 1],[PREADY = 0],[PWRITE = 1],[PADDR = 332],[PWDATA = b108ecd7],[PRDATA = 0],[PSLVERR = 0] ||
# --------------------------------------------------------------------------------------------------------------------
# [mon] : [450] : [count_m] = {3},|| [PSEL = 1],[PENABLE = 1],[PREADY = 1],[PWRITE = 1],[PADDR = 332],[PWDATA = b108ecd7],[PSLVERR = 0],[PSTRB = b] ||
# [access_t]  : || [psel = 1],[penable = 0],[pready = 1] ||, at 450
# || [PWRITE = 0],[PADDR = 2ca],[PWDATA = 805937a],[PSTRB = 0] ||
# [scb] : data received from monitor at 450 count = 3
# ** Info: [450] : PWRITE = 1,PSLVERR = 0,PADDR = 332,PWDATA = b108ecd7,PRDATA = x,PSTRB = b
#    Time: 450 ns  Scope: file_pkg.apb_slave_transaction.display File: ../SV/apb_slave_transaction.sv Line: 20
# ________________________________
# [scb] : [450] ==> [wr_count_scb] = {3}  write operation done successfully
# [pass_count = 0],[fail_count = 0]
# ** Info: assertion passed
#    Time: 450 ns Started: 450 ns  Scope: tb.vif.a7 File: ../SV/interface.sv Line: 115
# ** Info: assertion passed
#    Time: 450 ns Started: 450 ns  Scope: tb.vif.a6 File: ../SV/interface.sv Line: 108
# ** Info: assertion passed
#    Time: 450 ns Started: 450 ns  Scope: tb.vif.a5 File: ../SV/interface.sv Line: 100
# [drv_ACCESS] : [470] : || [PSEL = 1],[PENABLE = 0],[PREADY = 0],[PWRITE = 1],[PADDR = 332],[PWDATA = b108ecd7],[PRDATA = 0],[PSLVERR = 0] ||
# --------------------------------------------------------------------------------------------------------------------
# [SETUP_t] : || [psel = 1],[penable = 0],[pready = 0],[PSTRB = 0] ||, at 470
# ----------------------------------------------------------------------------------------------------------
# ** Info: assertion passed
#    Time: 470 ns Started: 450 ns  Scope: tb.vif.a3 File: ../SV/interface.sv Line: 84
# ** Info: assertion passed
#    Time: 470 ns Started: 470 ns  Scope: tb.vif.a5 File: ../SV/interface.sv Line: 100
# [drv_SETUP] : [490] : || [PSEL = 1],[PENABLE = 0],[PREADY = 0],[PWRITE = 0],[PADDR = 2ca],[PWDATA = b108ecd7],[PRDATA = 0],[PSLVERR = 0] ||
# --------------------------------------------------------------------------------------------------------------------
# ** Info: assertion passed
#    Time: 490 ns Started: 490 ns  Scope: tb.vif.a2 File: ../SV/interface.sv Line: 71
# ** Info: assertion passed
#    Time: 490 ns Started: 490 ns  Scope: tb.vif.a5 File: ../SV/interface.sv Line: 100
# [drv_SETUP] : [510] : || [PSEL = 1],[PENABLE = 1],[PREADY = 0],[PWRITE = 0],[PADDR = 2ca],[PWDATA = b108ecd7],[PRDATA = 0],[PSLVERR = 0] ||
# --------------------------------------------------------------------------------------------------------------------
# ** Info: assertion passed
#    Time: 510 ns Started: 510 ns  Scope: tb.vif.a6 File: ../SV/interface.sv Line: 108
# ** Info: assertion passed
#    Time: 510 ns Started: 510 ns  Scope: tb.vif.a9 File: ../SV/interface.sv Line: 132
# ** Info: assertion passed
#    Time: 510 ns Started: 510 ns  Scope: tb.vif.a2 File: ../SV/interface.sv Line: 71
# ** Info: assertion passed
#    Time: 510 ns Started: 510 ns  Scope: tb.vif.a5 File: ../SV/interface.sv Line: 100
# ** Info: assertion passed
#    Time: 530 ns Started: 530 ns  Scope: tb.vif.a6 File: ../SV/interface.sv Line: 108
# ** Info: assertion passed
#    Time: 530 ns Started: 530 ns  Scope: tb.vif.a9 File: ../SV/interface.sv Line: 132
# ** Info: assertion passed
#    Time: 530 ns Started: 530 ns  Scope: tb.vif.a2 File: ../SV/interface.sv Line: 71
# ** Info: assertion passed
#    Time: 530 ns Started: 530 ns  Scope: tb.vif.a5 File: ../SV/interface.sv Line: 100
# ** Info: assertion passed
#    Time: 550 ns Started: 550 ns  Scope: tb.vif.a6 File: ../SV/interface.sv Line: 108
# ** Info: assertion passed
#    Time: 550 ns Started: 550 ns  Scope: tb.vif.a9 File: ../SV/interface.sv Line: 132
# ** Info: assertion passed
#    Time: 550 ns Started: 550 ns  Scope: tb.vif.a2 File: ../SV/interface.sv Line: 71
# ** Info: assertion passed
#    Time: 550 ns Started: 550 ns  Scope: tb.vif.a5 File: ../SV/interface.sv Line: 100
# [drv_ACCESS_RD] : [570] : || [PSEL = 1],[PENABLE = 1],[PREADY = 1],[PWRITE = 0],[PADDR = 2ca],[PRDATA = 0],[PSLVERR = 0] ||
# ** Info: assertion passed
#    Time: 570 ns Started: 570 ns  Scope: tb.vif.a6 File: ../SV/interface.sv Line: 108
# ** Info: assertion passed
#    Time: 570 ns Started: 570 ns  Scope: tb.vif.a9 File: ../SV/interface.sv Line: 132
# ** Info: assertion passed
#    Time: 570 ns Started: 570 ns  Scope: tb.vif.a2 File: ../SV/interface.sv Line: 71
# ** Info: assertion passed
#    Time: 570 ns Started: 570 ns  Scope: tb.vif.a5 File: ../SV/interface.sv Line: 100
# [drv_ACCESS] : [590] : || [PSEL = 1],[PENABLE = 1],[PREADY = 0],[PWRITE = 0],[PADDR = 2ca],[PWDATA = b108ecd7],[PRDATA = 0],[PSLVERR = 0] ||
# --------------------------------------------------------------------------------------------------------------------
# [mon] : [590] : [count_m] = {4}, || [PSEL = 1],[PENABLE = 1],[PREADY = 1],[PWRITE = 0],[PADDR = 2ca],[PRDATA = 0],[PSLVERR = 0],[PSTRB = 0] ||
# [access_t]  : || [psel = 1],[penable = 0],[pready = 1] ||, at 590
# || [PWRITE = 1],[PADDR = 207],[PWDATA = e465ff6d],[PSTRB = 7] ||
# [scb] : data received from monitor at 590 count = 4
# ** Info: [590] : PWRITE = 0,PSLVERR = 0,PADDR = 2ca,PWDATA = b108ecd7,PRDATA = 0,PSTRB = 0
#    Time: 590 ns  Scope: file_pkg.apb_slave_transaction.display File: ../SV/apb_slave_transaction.sv Line: 20
# ________________________________
# ** Warning: (vsim-3829) Non-existent associative array entry. Returning default value.
#    Time: 590 ns  Iteration: 3  Process: /file_pkg::apb_slave_environment::main/#FORK#41_f67feb7 File: ../SV/slave_scoreboard.sv Line: 44
#################################################################################
########################  TESTCASE PASSED  ######################################
#################################################################################
# ** Warning: (vsim-3829) Non-existent associative array entry. Returning default value.
#    Time: 590 ns  Iteration: 3  Process: /file_pkg::apb_slave_environment::main/#FORK#41_f67feb7 File: ../SV/slave_scoreboard.sv Line: 49
# ** Info: [scb] : [590]  ==> [rd_count_scb] = {1} TESTCASE PASSED at || {PADDR = 2ca],[actual_data = 0],[expected_data = 0] ||
#    Time: 590 ns  Scope: file_pkg.slave_scoreboard.slave_scoreboard__1.run File: ../SV/slave_scoreboard.sv Line: 49
# [pass_count = 1],[fail_count = 0]
# ** Info: assertion passed
#    Time: 590 ns Started: 590 ns  Scope: tb.vif.a7 File: ../SV/interface.sv Line: 115
# ** Info: assertion passed
#    Time: 590 ns Started: 590 ns  Scope: tb.vif.a6 File: ../SV/interface.sv Line: 108
# ** Info: assertion passed
#    Time: 590 ns Started: 590 ns  Scope: tb.vif.a2 File: ../SV/interface.sv Line: 71
# ** Info: assertion passed
#    Time: 590 ns Started: 590 ns  Scope: tb.vif.a5 File: ../SV/interface.sv Line: 100
# [drv_ACCESS] : [610] : || [PSEL = 1],[PENABLE = 0],[PREADY = 0],[PWRITE = 0],[PADDR = 2ca],[PWDATA = b108ecd7],[PRDATA = 0],[PSLVERR = 0] ||
# --------------------------------------------------------------------------------------------------------------------
# [SETUP_t] : || [psel = 1],[penable = 0],[pready = 0],[PSTRB = 7] ||, at 610
# ----------------------------------------------------------------------------------------------------------
# ** Info: assertion passed
#    Time: 610 ns Started: 590 ns  Scope: tb.vif.a3 File: ../SV/interface.sv Line: 84
# ** Info: assertion passed
#    Time: 610 ns Started: 610 ns  Scope: tb.vif.a2 File: ../SV/interface.sv Line: 71
# ** Info: assertion passed
#    Time: 610 ns Started: 610 ns  Scope: tb.vif.a5 File: ../SV/interface.sv Line: 100
# [drv_SETUP] : [630] : || [PSEL = 1],[PENABLE = 0],[PREADY = 0],[PWRITE = 1],[PADDR = 207],[PWDATA = e465ff6d],[PRDATA = 0],[PSLVERR = 0] ||
# --------------------------------------------------------------------------------------------------------------------
# ** Info: assertion passed
#    Time: 630 ns Started: 630 ns  Scope: tb.vif.a5 File: ../SV/interface.sv Line: 100
# [drv_SETUP] : [650] : || [PSEL = 1],[PENABLE = 1],[PREADY = 0],[PWRITE = 1],[PADDR = 207],[PWDATA = e465ff6d],[PRDATA = 0],[PSLVERR = 0] ||
# --------------------------------------------------------------------------------------------------------------------
# ** Info: assertion passed
#    Time: 650 ns Started: 650 ns  Scope: tb.vif.a6 File: ../SV/interface.sv Line: 108
# ** Info: assertion passed
#    Time: 650 ns Started: 650 ns  Scope: tb.vif.a9 File: ../SV/interface.sv Line: 132
# ** Info: assertion passed
#    Time: 650 ns Started: 650 ns  Scope: tb.vif.a5 File: ../SV/interface.sv Line: 100
# ** Info: assertion passed
#    Time: 670 ns Started: 670 ns  Scope: tb.vif.a6 File: ../SV/interface.sv Line: 108
# ** Info: assertion passed
#    Time: 670 ns Started: 670 ns  Scope: tb.vif.a9 File: ../SV/interface.sv Line: 132
# ** Info: assertion passed
#    Time: 670 ns Started: 670 ns  Scope: tb.vif.a5 File: ../SV/interface.sv Line: 100
# ** Info: assertion passed
#    Time: 690 ns Started: 690 ns  Scope: tb.vif.a6 File: ../SV/interface.sv Line: 108
# ** Info: assertion passed
#    Time: 690 ns Started: 690 ns  Scope: tb.vif.a9 File: ../SV/interface.sv Line: 132
# ** Info: assertion passed
#    Time: 690 ns Started: 690 ns  Scope: tb.vif.a5 File: ../SV/interface.sv Line: 100
# [drv_ACCESS_WR] : [710] : || [PSEL = 1],[PENABLE = 1],[PREADY = 1],[PWRITE = 1],[PADDR = 207],[PWDATA = 0],[PSLVERR = 0] ||
# ** Info: assertion passed
#    Time: 710 ns Started: 710 ns  Scope: tb.vif.a6 File: ../SV/interface.sv Line: 108
# ** Info: assertion passed
#    Time: 710 ns Started: 710 ns  Scope: tb.vif.a9 File: ../SV/interface.sv Line: 132
# ** Info: assertion passed
#    Time: 710 ns Started: 710 ns  Scope: tb.vif.a5 File: ../SV/interface.sv Line: 100
# [drv_ACCESS] : [730] : || [PSEL = 1],[PENABLE = 1],[PREADY = 0],[PWRITE = 1],[PADDR = 207],[PWDATA = e465ff6d],[PRDATA = 0],[PSLVERR = 0] ||
# --------------------------------------------------------------------------------------------------------------------
# [mon] : [730] : [count_m] = {5},|| [PSEL = 1],[PENABLE = 1],[PREADY = 1],[PWRITE = 1],[PADDR = 207],[PWDATA = e465ff6d],[PSLVERR = 0],[PSTRB = 7] ||
# [access_t]  : || [psel = 1],[penable = 0],[pready = 1] ||, at 730
# || [PWRITE = 1],[PADDR = 80],[PWDATA = a5eb5b39],[PSTRB = 4] ||
# [scb] : data received from monitor at 730 count = 5
# ** Info: [730] : PWRITE = 1,PSLVERR = 0,PADDR = 207,PWDATA = e465ff6d,PRDATA = 0,PSTRB = 7
#    Time: 730 ns  Scope: file_pkg.apb_slave_transaction.display File: ../SV/apb_slave_transaction.sv Line: 20
# ________________________________
# [scb] : [730] ==> [wr_count_scb] = {4}  write operation done successfully
# [pass_count = 1],[fail_count = 0]
# ** Info: assertion passed
#    Time: 730 ns Started: 730 ns  Scope: tb.vif.a7 File: ../SV/interface.sv Line: 115
# ** Info: assertion passed
#    Time: 730 ns Started: 730 ns  Scope: tb.vif.a6 File: ../SV/interface.sv Line: 108
# ** Info: assertion passed
#    Time: 730 ns Started: 730 ns  Scope: tb.vif.a5 File: ../SV/interface.sv Line: 100
# [drv_ACCESS] : [750] : || [PSEL = 1],[PENABLE = 0],[PREADY = 0],[PWRITE = 1],[PADDR = 207],[PWDATA = e465ff6d],[PRDATA = 0],[PSLVERR = 0] ||
# --------------------------------------------------------------------------------------------------------------------
# [SETUP_t] : || [psel = 1],[penable = 0],[pready = 0],[PSTRB = 4] ||, at 750
# ----------------------------------------------------------------------------------------------------------
# ** Info: assertion passed
#    Time: 750 ns Started: 730 ns  Scope: tb.vif.a3 File: ../SV/interface.sv Line: 84
# ** Info: assertion passed
#    Time: 750 ns Started: 750 ns  Scope: tb.vif.a5 File: ../SV/interface.sv Line: 100
# [drv_SETUP] : [770] : || [PSEL = 1],[PENABLE = 0],[PREADY = 0],[PWRITE = 1],[PADDR = 80],[PWDATA = a5eb5b39],[PRDATA = 0],[PSLVERR = 0] ||
# --------------------------------------------------------------------------------------------------------------------
# ** Info: assertion passed
#    Time: 770 ns Started: 770 ns  Scope: tb.vif.a5 File: ../SV/interface.sv Line: 100
# [drv_SETUP] : [790] : || [PSEL = 1],[PENABLE = 1],[PREADY = 0],[PWRITE = 1],[PADDR = 80],[PWDATA = a5eb5b39],[PRDATA = 0],[PSLVERR = 0] ||
# --------------------------------------------------------------------------------------------------------------------
# ** Info: assertion passed
#    Time: 790 ns Started: 790 ns  Scope: tb.vif.a6 File: ../SV/interface.sv Line: 108
# ** Info: assertion passed
#    Time: 790 ns Started: 790 ns  Scope: tb.vif.a9 File: ../SV/interface.sv Line: 132
# ** Info: assertion passed
#    Time: 790 ns Started: 790 ns  Scope: tb.vif.a5 File: ../SV/interface.sv Line: 100
# ** Info: assertion passed
#    Time: 810 ns Started: 810 ns  Scope: tb.vif.a6 File: ../SV/interface.sv Line: 108
# ** Info: assertion passed
#    Time: 810 ns Started: 810 ns  Scope: tb.vif.a9 File: ../SV/interface.sv Line: 132
# ** Info: assertion passed
#    Time: 810 ns Started: 810 ns  Scope: tb.vif.a5 File: ../SV/interface.sv Line: 100
# ** Info: assertion passed
#    Time: 830 ns Started: 830 ns  Scope: tb.vif.a6 File: ../SV/interface.sv Line: 108
# ** Info: assertion passed
#    Time: 830 ns Started: 830 ns  Scope: tb.vif.a9 File: ../SV/interface.sv Line: 132
# ** Info: assertion passed
#    Time: 830 ns Started: 830 ns  Scope: tb.vif.a5 File: ../SV/interface.sv Line: 100
# [drv_ACCESS_WR] : [850] : || [PSEL = 1],[PENABLE = 1],[PREADY = 1],[PWRITE = 1],[PADDR = 80],[PWDATA = 0],[PSLVERR = 0] ||
# ** Info: assertion passed
#    Time: 850 ns Started: 850 ns  Scope: tb.vif.a6 File: ../SV/interface.sv Line: 108
# ** Info: assertion passed
#    Time: 850 ns Started: 850 ns  Scope: tb.vif.a9 File: ../SV/interface.sv Line: 132
# ** Info: assertion passed
#    Time: 850 ns Started: 850 ns  Scope: tb.vif.a5 File: ../SV/interface.sv Line: 100
# [drv_ACCESS] : [870] : || [PSEL = 1],[PENABLE = 1],[PREADY = 0],[PWRITE = 1],[PADDR = 80],[PWDATA = a5eb5b39],[PRDATA = 0],[PSLVERR = 0] ||
# --------------------------------------------------------------------------------------------------------------------
# [mon] : [870] : [count_m] = {6},|| [PSEL = 1],[PENABLE = 1],[PREADY = 1],[PWRITE = 1],[PADDR = 80],[PWDATA = a5eb5b39],[PSLVERR = 0],[PSTRB = 4] ||
# [access_t]  : || [psel = 1],[penable = 0],[pready = 1] ||, at 870
# || [PWRITE = 1],[PADDR = 301],[PWDATA = d309ea5e],[PSTRB = f] ||
# [scb] : data received from monitor at 870 count = 6
# ** Info: [870] : PWRITE = 1,PSLVERR = 0,PADDR = 80,PWDATA = a5eb5b39,PRDATA = 0,PSTRB = 4
#    Time: 870 ns  Scope: file_pkg.apb_slave_transaction.display File: ../SV/apb_slave_transaction.sv Line: 20
# ________________________________
# [scb] : [870] ==> [wr_count_scb] = {5}  write operation done successfully
# [pass_count = 1],[fail_count = 0]
# ** Info: assertion passed
#    Time: 870 ns Started: 870 ns  Scope: tb.vif.a7 File: ../SV/interface.sv Line: 115
# ** Info: assertion passed
#    Time: 870 ns Started: 870 ns  Scope: tb.vif.a6 File: ../SV/interface.sv Line: 108
# ** Info: assertion passed
#    Time: 870 ns Started: 870 ns  Scope: tb.vif.a5 File: ../SV/interface.sv Line: 100
# [drv_ACCESS] : [890] : || [PSEL = 1],[PENABLE = 0],[PREADY = 0],[PWRITE = 1],[PADDR = 80],[PWDATA = a5eb5b39],[PRDATA = 0],[PSLVERR = 0] ||
# --------------------------------------------------------------------------------------------------------------------
# [SETUP_t] : || [psel = 1],[penable = 0],[pready = 0],[PSTRB = f] ||, at 890
# ----------------------------------------------------------------------------------------------------------
# ** Info: assertion passed
#    Time: 890 ns Started: 870 ns  Scope: tb.vif.a3 File: ../SV/interface.sv Line: 84
# ** Info: assertion passed
#    Time: 890 ns Started: 890 ns  Scope: tb.vif.a5 File: ../SV/interface.sv Line: 100
# [drv_SETUP] : [910] : || [PSEL = 1],[PENABLE = 0],[PREADY = 0],[PWRITE = 1],[PADDR = 301],[PWDATA = d309ea5e],[PRDATA = 0],[PSLVERR = 0] ||
# --------------------------------------------------------------------------------------------------------------------
# ** Info: assertion passed
#    Time: 910 ns Started: 910 ns  Scope: tb.vif.a5 File: ../SV/interface.sv Line: 100
# [drv_SETUP] : [930] : || [PSEL = 1],[PENABLE = 1],[PREADY = 0],[PWRITE = 1],[PADDR = 301],[PWDATA = d309ea5e],[PRDATA = 0],[PSLVERR = 0] ||
# --------------------------------------------------------------------------------------------------------------------
# ** Info: assertion passed
#    Time: 930 ns Started: 930 ns  Scope: tb.vif.a6 File: ../SV/interface.sv Line: 108
# ** Info: assertion passed
#    Time: 930 ns Started: 930 ns  Scope: tb.vif.a9 File: ../SV/interface.sv Line: 132
# ** Info: assertion passed
#    Time: 930 ns Started: 930 ns  Scope: tb.vif.a5 File: ../SV/interface.sv Line: 100
# ** Info: assertion passed
#    Time: 950 ns Started: 950 ns  Scope: tb.vif.a6 File: ../SV/interface.sv Line: 108
# ** Info: assertion passed
#    Time: 950 ns Started: 950 ns  Scope: tb.vif.a9 File: ../SV/interface.sv Line: 132
# ** Info: assertion passed
#    Time: 950 ns Started: 950 ns  Scope: tb.vif.a5 File: ../SV/interface.sv Line: 100
# ** Info: assertion passed
#    Time: 970 ns Started: 970 ns  Scope: tb.vif.a6 File: ../SV/interface.sv Line: 108
# ** Info: assertion passed
#    Time: 970 ns Started: 970 ns  Scope: tb.vif.a9 File: ../SV/interface.sv Line: 132
# ** Info: assertion passed
#    Time: 970 ns Started: 970 ns  Scope: tb.vif.a5 File: ../SV/interface.sv Line: 100
# [drv_ACCESS_WR] : [990] : || [PSEL = 1],[PENABLE = 1],[PREADY = 1],[PWRITE = 1],[PADDR = 301],[PWDATA = 0],[PSLVERR = 0] ||
# ** Info: assertion passed
#    Time: 990 ns Started: 990 ns  Scope: tb.vif.a6 File: ../SV/interface.sv Line: 108
# ** Info: assertion passed
#    Time: 990 ns Started: 990 ns  Scope: tb.vif.a9 File: ../SV/interface.sv Line: 132
# ** Info: assertion passed
#    Time: 990 ns Started: 990 ns  Scope: tb.vif.a5 File: ../SV/interface.sv Line: 100
# [drv_ACCESS] : [1010] : || [PSEL = 1],[PENABLE = 1],[PREADY = 0],[PWRITE = 1],[PADDR = 301],[PWDATA = d309ea5e],[PRDATA = 0],[PSLVERR = 0] ||
# --------------------------------------------------------------------------------------------------------------------
# [mon] : [1010] : [count_m] = {7},|| [PSEL = 1],[PENABLE = 1],[PREADY = 1],[PWRITE = 1],[PADDR = 301],[PWDATA = d309ea5e],[PSLVERR = 0],[PSTRB = f] ||
# [access_t]  : || [psel = 1],[penable = 0],[pready = 1] ||, at 1010
# || [PWRITE = 1],[PADDR = 1f8],[PWDATA = b7833984],[PSTRB = c] ||
# [scb] : data received from monitor at 1010 count = 7
# ** Info: [1010] : PWRITE = 1,PSLVERR = 0,PADDR = 301,PWDATA = d309ea5e,PRDATA = 0,PSTRB = f
#    Time: 1010 ns  Scope: file_pkg.apb_slave_transaction.display File: ../SV/apb_slave_transaction.sv Line: 20
# ________________________________
# [scb] : [1010] ==> [wr_count_scb] = {6}  write operation done successfully
# [pass_count = 1],[fail_count = 0]
# ** Info: assertion passed
#    Time: 1010 ns Started: 1010 ns  Scope: tb.vif.a7 File: ../SV/interface.sv Line: 115
# ** Info: assertion passed
#    Time: 1010 ns Started: 1010 ns  Scope: tb.vif.a6 File: ../SV/interface.sv Line: 108
# ** Info: assertion passed
#    Time: 1010 ns Started: 1010 ns  Scope: tb.vif.a5 File: ../SV/interface.sv Line: 100
# [drv_ACCESS] : [1030] : || [PSEL = 1],[PENABLE = 0],[PREADY = 0],[PWRITE = 1],[PADDR = 301],[PWDATA = d309ea5e],[PRDATA = 0],[PSLVERR = 0] ||
# --------------------------------------------------------------------------------------------------------------------
# [SETUP_t] : || [psel = 1],[penable = 0],[pready = 0],[PSTRB = c] ||, at 1030
# ----------------------------------------------------------------------------------------------------------
# ** Info: assertion passed
#    Time: 1030 ns Started: 1010 ns  Scope: tb.vif.a3 File: ../SV/interface.sv Line: 84
# ** Info: assertion passed
#    Time: 1030 ns Started: 1030 ns  Scope: tb.vif.a5 File: ../SV/interface.sv Line: 100
# [drv_SETUP] : [1050] : || [PSEL = 1],[PENABLE = 0],[PREADY = 0],[PWRITE = 1],[PADDR = 1f8],[PWDATA = b7833984],[PRDATA = 0],[PSLVERR = 0] ||
# --------------------------------------------------------------------------------------------------------------------
# ** Info: assertion passed
#    Time: 1050 ns Started: 1050 ns  Scope: tb.vif.a5 File: ../SV/interface.sv Line: 100
# [drv_SETUP] : [1070] : || [PSEL = 1],[PENABLE = 1],[PREADY = 0],[PWRITE = 1],[PADDR = 1f8],[PWDATA = b7833984],[PRDATA = 0],[PSLVERR = 0] ||
# --------------------------------------------------------------------------------------------------------------------
# ** Info: assertion passed
#    Time: 1070 ns Started: 1070 ns  Scope: tb.vif.a6 File: ../SV/interface.sv Line: 108
# ** Info: assertion passed
#    Time: 1070 ns Started: 1070 ns  Scope: tb.vif.a9 File: ../SV/interface.sv Line: 132
# ** Info: assertion passed
#    Time: 1070 ns Started: 1070 ns  Scope: tb.vif.a5 File: ../SV/interface.sv Line: 100
# ** Info: assertion passed
#    Time: 1090 ns Started: 1090 ns  Scope: tb.vif.a6 File: ../SV/interface.sv Line: 108
# ** Info: assertion passed
#    Time: 1090 ns Started: 1090 ns  Scope: tb.vif.a9 File: ../SV/interface.sv Line: 132
# ** Info: assertion passed
#    Time: 1090 ns Started: 1090 ns  Scope: tb.vif.a5 File: ../SV/interface.sv Line: 100
# ** Info: assertion passed
#    Time: 1110 ns Started: 1110 ns  Scope: tb.vif.a6 File: ../SV/interface.sv Line: 108
# ** Info: assertion passed
#    Time: 1110 ns Started: 1110 ns  Scope: tb.vif.a9 File: ../SV/interface.sv Line: 132
# ** Info: assertion passed
#    Time: 1110 ns Started: 1110 ns  Scope: tb.vif.a5 File: ../SV/interface.sv Line: 100
# [drv_ACCESS_WR] : [1130] : || [PSEL = 1],[PENABLE = 1],[PREADY = 1],[PWRITE = 1],[PADDR = 1f8],[PWDATA = 0],[PSLVERR = 0] ||
# ** Info: assertion passed
#    Time: 1130 ns Started: 1130 ns  Scope: tb.vif.a6 File: ../SV/interface.sv Line: 108
# ** Info: assertion passed
#    Time: 1130 ns Started: 1130 ns  Scope: tb.vif.a9 File: ../SV/interface.sv Line: 132
# ** Info: assertion passed
#    Time: 1130 ns Started: 1130 ns  Scope: tb.vif.a5 File: ../SV/interface.sv Line: 100
# [drv_ACCESS] : [1150] : || [PSEL = 1],[PENABLE = 1],[PREADY = 0],[PWRITE = 1],[PADDR = 1f8],[PWDATA = b7833984],[PRDATA = 0],[PSLVERR = 0] ||
# --------------------------------------------------------------------------------------------------------------------
# [mon] : [1150] : [count_m] = {8},|| [PSEL = 1],[PENABLE = 1],[PREADY = 1],[PWRITE = 1],[PADDR = 1f8],[PWDATA = b7833984],[PSLVERR = 0],[PSTRB = c] ||
# [access_t]  : || [psel = 1],[penable = 0],[pready = 1] ||, at 1150
# || [PWRITE = 1],[PADDR = 32a],[PWDATA = 2ffac7ca],[PSTRB = 7] ||
# [scb] : data received from monitor at 1150 count = 8
# ** Info: [1150] : PWRITE = 1,PSLVERR = 0,PADDR = 1f8,PWDATA = b7833984,PRDATA = 0,PSTRB = c
#    Time: 1150 ns  Scope: file_pkg.apb_slave_transaction.display File: ../SV/apb_slave_transaction.sv Line: 20
# ________________________________
# [scb] : [1150] ==> [wr_count_scb] = {7}  write operation done successfully
# [pass_count = 1],[fail_count = 0]
# ** Info: assertion passed
#    Time: 1150 ns Started: 1150 ns  Scope: tb.vif.a7 File: ../SV/interface.sv Line: 115
# ** Info: assertion passed
#    Time: 1150 ns Started: 1150 ns  Scope: tb.vif.a6 File: ../SV/interface.sv Line: 108
# ** Info: assertion passed
#    Time: 1150 ns Started: 1150 ns  Scope: tb.vif.a5 File: ../SV/interface.sv Line: 100
# [drv_ACCESS] : [1170] : || [PSEL = 1],[PENABLE = 0],[PREADY = 0],[PWRITE = 1],[PADDR = 1f8],[PWDATA = b7833984],[PRDATA = 0],[PSLVERR = 0] ||
# --------------------------------------------------------------------------------------------------------------------
# [SETUP_t] : || [psel = 1],[penable = 0],[pready = 0],[PSTRB = 7] ||, at 1170
# ----------------------------------------------------------------------------------------------------------
# ** Info: assertion passed
#    Time: 1170 ns Started: 1150 ns  Scope: tb.vif.a3 File: ../SV/interface.sv Line: 84
# ** Info: assertion passed
#    Time: 1170 ns Started: 1170 ns  Scope: tb.vif.a5 File: ../SV/interface.sv Line: 100
# [drv_SETUP] : [1190] : || [PSEL = 1],[PENABLE = 0],[PREADY = 0],[PWRITE = 1],[PADDR = 32a],[PWDATA = 2ffac7ca],[PRDATA = 0],[PSLVERR = 0] ||
# --------------------------------------------------------------------------------------------------------------------
# ** Info: assertion passed
#    Time: 1190 ns Started: 1190 ns  Scope: tb.vif.a5 File: ../SV/interface.sv Line: 100
# [drv_SETUP] : [1210] : || [PSEL = 1],[PENABLE = 1],[PREADY = 0],[PWRITE = 1],[PADDR = 32a],[PWDATA = 2ffac7ca],[PRDATA = 0],[PSLVERR = 0] ||
# --------------------------------------------------------------------------------------------------------------------
# ** Info: assertion passed
#    Time: 1210 ns Started: 1210 ns  Scope: tb.vif.a6 File: ../SV/interface.sv Line: 108
# ** Info: assertion passed
#    Time: 1210 ns Started: 1210 ns  Scope: tb.vif.a9 File: ../SV/interface.sv Line: 132
# ** Info: assertion passed
#    Time: 1210 ns Started: 1210 ns  Scope: tb.vif.a5 File: ../SV/interface.sv Line: 100
# ** Info: assertion passed
#    Time: 1230 ns Started: 1230 ns  Scope: tb.vif.a6 File: ../SV/interface.sv Line: 108
# ** Info: assertion passed
#    Time: 1230 ns Started: 1230 ns  Scope: tb.vif.a9 File: ../SV/interface.sv Line: 132
# ** Info: assertion passed
#    Time: 1230 ns Started: 1230 ns  Scope: tb.vif.a5 File: ../SV/interface.sv Line: 100
# ** Info: assertion passed
#    Time: 1250 ns Started: 1250 ns  Scope: tb.vif.a6 File: ../SV/interface.sv Line: 108
# ** Info: assertion passed
#    Time: 1250 ns Started: 1250 ns  Scope: tb.vif.a9 File: ../SV/interface.sv Line: 132
# ** Info: assertion passed
#    Time: 1250 ns Started: 1250 ns  Scope: tb.vif.a5 File: ../SV/interface.sv Line: 100
# [drv_ACCESS_WR] : [1270] : || [PSEL = 1],[PENABLE = 1],[PREADY = 1],[PWRITE = 1],[PADDR = 32a],[PWDATA = 0],[PSLVERR = 0] ||
# ** Info: assertion passed
#    Time: 1270 ns Started: 1270 ns  Scope: tb.vif.a6 File: ../SV/interface.sv Line: 108
# ** Info: assertion passed
#    Time: 1270 ns Started: 1270 ns  Scope: tb.vif.a9 File: ../SV/interface.sv Line: 132
# ** Info: assertion passed
#    Time: 1270 ns Started: 1270 ns  Scope: tb.vif.a5 File: ../SV/interface.sv Line: 100
# [drv_ACCESS] : [1290] : || [PSEL = 1],[PENABLE = 1],[PREADY = 0],[PWRITE = 1],[PADDR = 32a],[PWDATA = 2ffac7ca],[PRDATA = 0],[PSLVERR = 0] ||
# --------------------------------------------------------------------------------------------------------------------
# [mon] : [1290] : [count_m] = {9},|| [PSEL = 1],[PENABLE = 1],[PREADY = 1],[PWRITE = 1],[PADDR = 32a],[PWDATA = 2ffac7ca],[PSLVERR = 0],[PSTRB = 7] ||
# [access_t]  : || [psel = 1],[penable = 0],[pready = 1] ||, at 1290
# || [PWRITE = 1],[PADDR = 16d],[PWDATA = ee3f310f],[PSTRB = b] ||
# [scb] : data received from monitor at 1290 count = 9
# ** Info: [1290] : PWRITE = 1,PSLVERR = 0,PADDR = 32a,PWDATA = 2ffac7ca,PRDATA = 0,PSTRB = 7
#    Time: 1290 ns  Scope: file_pkg.apb_slave_transaction.display File: ../SV/apb_slave_transaction.sv Line: 20
# ________________________________
# [scb] : [1290] ==> [wr_count_scb] = {8}  write operation done successfully
# [pass_count = 1],[fail_count = 0]
# ** Info: assertion passed
#    Time: 1290 ns Started: 1290 ns  Scope: tb.vif.a7 File: ../SV/interface.sv Line: 115
# ** Info: assertion passed
#    Time: 1290 ns Started: 1290 ns  Scope: tb.vif.a6 File: ../SV/interface.sv Line: 108
# ** Info: assertion passed
#    Time: 1290 ns Started: 1290 ns  Scope: tb.vif.a5 File: ../SV/interface.sv Line: 100
# [drv_ACCESS] : [1310] : || [PSEL = 1],[PENABLE = 0],[PREADY = 0],[PWRITE = 1],[PADDR = 32a],[PWDATA = 2ffac7ca],[PRDATA = 0],[PSLVERR = 0] ||
# --------------------------------------------------------------------------------------------------------------------
# [SETUP_t] : || [psel = 1],[penable = 0],[pready = 0],[PSTRB = b] ||, at 1310
# ----------------------------------------------------------------------------------------------------------
# ** Info: assertion passed
#    Time: 1310 ns Started: 1290 ns  Scope: tb.vif.a3 File: ../SV/interface.sv Line: 84
# ** Info: assertion passed
#    Time: 1310 ns Started: 1310 ns  Scope: tb.vif.a5 File: ../SV/interface.sv Line: 100
# [drv_SETUP] : [1330] : || [PSEL = 1],[PENABLE = 0],[PREADY = 0],[PWRITE = 1],[PADDR = 16d],[PWDATA = ee3f310f],[PRDATA = 0],[PSLVERR = 0] ||
# --------------------------------------------------------------------------------------------------------------------
# ** Info: assertion passed
#    Time: 1330 ns Started: 1330 ns  Scope: tb.vif.a5 File: ../SV/interface.sv Line: 100
# [drv_SETUP] : [1350] : || [PSEL = 1],[PENABLE = 1],[PREADY = 0],[PWRITE = 1],[PADDR = 16d],[PWDATA = ee3f310f],[PRDATA = 0],[PSLVERR = 0] ||
# --------------------------------------------------------------------------------------------------------------------
# ** Info: assertion passed
#    Time: 1350 ns Started: 1350 ns  Scope: tb.vif.a6 File: ../SV/interface.sv Line: 108
# ** Info: assertion passed
#    Time: 1350 ns Started: 1350 ns  Scope: tb.vif.a9 File: ../SV/interface.sv Line: 132
# ** Info: assertion passed
#    Time: 1350 ns Started: 1350 ns  Scope: tb.vif.a5 File: ../SV/interface.sv Line: 100
# ** Info: assertion passed
#    Time: 1370 ns Started: 1370 ns  Scope: tb.vif.a6 File: ../SV/interface.sv Line: 108
# ** Info: assertion passed
#    Time: 1370 ns Started: 1370 ns  Scope: tb.vif.a9 File: ../SV/interface.sv Line: 132
# ** Info: assertion passed
#    Time: 1370 ns Started: 1370 ns  Scope: tb.vif.a5 File: ../SV/interface.sv Line: 100
# ** Info: assertion passed
#    Time: 1390 ns Started: 1390 ns  Scope: tb.vif.a6 File: ../SV/interface.sv Line: 108
# ** Info: assertion passed
#    Time: 1390 ns Started: 1390 ns  Scope: tb.vif.a9 File: ../SV/interface.sv Line: 132
# ** Info: assertion passed
#    Time: 1390 ns Started: 1390 ns  Scope: tb.vif.a5 File: ../SV/interface.sv Line: 100
# [drv_ACCESS_WR] : [1410] : || [PSEL = 1],[PENABLE = 1],[PREADY = 1],[PWRITE = 1],[PADDR = 16d],[PWDATA = 0],[PSLVERR = 0] ||
# ** Info: assertion passed
#    Time: 1410 ns Started: 1410 ns  Scope: tb.vif.a6 File: ../SV/interface.sv Line: 108
# ** Info: assertion passed
#    Time: 1410 ns Started: 1410 ns  Scope: tb.vif.a9 File: ../SV/interface.sv Line: 132
# ** Info: assertion passed
#    Time: 1410 ns Started: 1410 ns  Scope: tb.vif.a5 File: ../SV/interface.sv Line: 100
# [drv_ACCESS] : [1430] : || [PSEL = 1],[PENABLE = 1],[PREADY = 0],[PWRITE = 1],[PADDR = 16d],[PWDATA = ee3f310f],[PRDATA = 0],[PSLVERR = 0] ||
# --------------------------------------------------------------------------------------------------------------------
# [mon] : [1430] : [count_m] = {10},|| [PSEL = 1],[PENABLE = 1],[PREADY = 1],[PWRITE = 1],[PADDR = 16d],[PWDATA = ee3f310f],[PSLVERR = 0],[PSTRB = b] ||
# [access_t]  : || [psel = 1],[penable = 0],[pready = 1] ||, at 1430
# || [PWRITE = 1],[PADDR = 380],[PWDATA = e12b1bef],[PSTRB = d] ||
# [scb] : data received from monitor at 1430 count = 10
# ** Info: [1430] : PWRITE = 1,PSLVERR = 0,PADDR = 16d,PWDATA = ee3f310f,PRDATA = 0,PSTRB = b
#    Time: 1430 ns  Scope: file_pkg.apb_slave_transaction.display File: ../SV/apb_slave_transaction.sv Line: 20
# ________________________________
# [scb] : [1430] ==> [wr_count_scb] = {9}  write operation done successfully
# [pass_count = 1],[fail_count = 0]
# ** Info: assertion passed
#    Time: 1430 ns Started: 1430 ns  Scope: tb.vif.a7 File: ../SV/interface.sv Line: 115
# ** Info: assertion passed
#    Time: 1430 ns Started: 1430 ns  Scope: tb.vif.a6 File: ../SV/interface.sv Line: 108
# ** Info: assertion passed
#    Time: 1430 ns Started: 1430 ns  Scope: tb.vif.a5 File: ../SV/interface.sv Line: 100
# [drv_ACCESS] : [1450] : || [PSEL = 1],[PENABLE = 0],[PREADY = 0],[PWRITE = 1],[PADDR = 16d],[PWDATA = ee3f310f],[PRDATA = 0],[PSLVERR = 0] ||
# --------------------------------------------------------------------------------------------------------------------
# [SETUP_t] : || [psel = 1],[penable = 0],[pready = 0],[PSTRB = d] ||, at 1450
# ----------------------------------------------------------------------------------------------------------
# ** Info: assertion passed
#    Time: 1450 ns Started: 1430 ns  Scope: tb.vif.a3 File: ../SV/interface.sv Line: 84
# ** Info: assertion passed
#    Time: 1450 ns Started: 1450 ns  Scope: tb.vif.a5 File: ../SV/interface.sv Line: 100
# [drv_SETUP] : [1470] : || [PSEL = 1],[PENABLE = 0],[PREADY = 0],[PWRITE = 1],[PADDR = 380],[PWDATA = e12b1bef],[PRDATA = 0],[PSLVERR = 0] ||
# --------------------------------------------------------------------------------------------------------------------
# ** Info: assertion passed
#    Time: 1470 ns Started: 1470 ns  Scope: tb.vif.a5 File: ../SV/interface.sv Line: 100
# [drv_SETUP] : [1490] : || [PSEL = 1],[PENABLE = 1],[PREADY = 0],[PWRITE = 1],[PADDR = 380],[PWDATA = e12b1bef],[PRDATA = 0],[PSLVERR = 0] ||
# --------------------------------------------------------------------------------------------------------------------
# ** Info: assertion passed
#    Time: 1490 ns Started: 1490 ns  Scope: tb.vif.a6 File: ../SV/interface.sv Line: 108
# ** Info: assertion passed
#    Time: 1490 ns Started: 1490 ns  Scope: tb.vif.a9 File: ../SV/interface.sv Line: 132
# ** Info: assertion passed
#    Time: 1490 ns Started: 1490 ns  Scope: tb.vif.a5 File: ../SV/interface.sv Line: 100
# ** Info: assertion passed
#    Time: 1510 ns Started: 1510 ns  Scope: tb.vif.a6 File: ../SV/interface.sv Line: 108
# ** Info: assertion passed
#    Time: 1510 ns Started: 1510 ns  Scope: tb.vif.a9 File: ../SV/interface.sv Line: 132
# ** Info: assertion passed
#    Time: 1510 ns Started: 1510 ns  Scope: tb.vif.a5 File: ../SV/interface.sv Line: 100
# ** Info: assertion passed
#    Time: 1530 ns Started: 1530 ns  Scope: tb.vif.a6 File: ../SV/interface.sv Line: 108
# ** Info: assertion passed
#    Time: 1530 ns Started: 1530 ns  Scope: tb.vif.a9 File: ../SV/interface.sv Line: 132
# ** Info: assertion passed
#    Time: 1530 ns Started: 1530 ns  Scope: tb.vif.a5 File: ../SV/interface.sv Line: 100
# [drv_ACCESS_WR] : [1550] : || [PSEL = 1],[PENABLE = 1],[PREADY = 1],[PWRITE = 1],[PADDR = 380],[PWDATA = 0],[PSLVERR = 0] ||
# ** Info: assertion passed
#    Time: 1550 ns Started: 1550 ns  Scope: tb.vif.a6 File: ../SV/interface.sv Line: 108
# ** Info: assertion passed
#    Time: 1550 ns Started: 1550 ns  Scope: tb.vif.a9 File: ../SV/interface.sv Line: 132
# ** Info: assertion passed
#    Time: 1550 ns Started: 1550 ns  Scope: tb.vif.a5 File: ../SV/interface.sv Line: 100
# [drv_ACCESS] : [1570] : || [PSEL = 1],[PENABLE = 1],[PREADY = 0],[PWRITE = 1],[PADDR = 380],[PWDATA = e12b1bef],[PRDATA = 0],[PSLVERR = 0] ||
# --------------------------------------------------------------------------------------------------------------------
# [mon] : [1570] : [count_m] = {11},|| [PSEL = 1],[PENABLE = 1],[PREADY = 1],[PWRITE = 1],[PADDR = 380],[PWDATA = e12b1bef],[PSLVERR = 0],[PSTRB = d] ||
# [access_t]  : || [psel = 1],[penable = 0],[pready = 1] ||, at 1570
# || [PWRITE = 1],[PADDR = 3ac],[PWDATA = 8fe0324],[PSTRB = 7] ||
# [scb] : data received from monitor at 1570 count = 11
# ** Info: [1570] : PWRITE = 1,PSLVERR = 0,PADDR = 380,PWDATA = e12b1bef,PRDATA = 0,PSTRB = d
#    Time: 1570 ns  Scope: file_pkg.apb_slave_transaction.display File: ../SV/apb_slave_transaction.sv Line: 20
# ________________________________
# [scb] : [1570] ==> [wr_count_scb] = {10}  write operation done successfully
# [pass_count = 1],[fail_count = 0]
# ** Info: assertion passed
#    Time: 1570 ns Started: 1570 ns  Scope: tb.vif.a7 File: ../SV/interface.sv Line: 115
# ** Info: assertion passed
#    Time: 1570 ns Started: 1570 ns  Scope: tb.vif.a6 File: ../SV/interface.sv Line: 108
# ** Info: assertion passed
#    Time: 1570 ns Started: 1570 ns  Scope: tb.vif.a5 File: ../SV/interface.sv Line: 100
# [drv_ACCESS] : [1590] : || [PSEL = 1],[PENABLE = 0],[PREADY = 0],[PWRITE = 1],[PADDR = 380],[PWDATA = e12b1bef],[PRDATA = 0],[PSLVERR = 0] ||
# --------------------------------------------------------------------------------------------------------------------
# [SETUP_t] : || [psel = 1],[penable = 0],[pready = 0],[PSTRB = 7] ||, at 1590
# ----------------------------------------------------------------------------------------------------------
# ** Info: assertion passed
#    Time: 1590 ns Started: 1570 ns  Scope: tb.vif.a3 File: ../SV/interface.sv Line: 84
# ** Info: assertion passed
#    Time: 1590 ns Started: 1590 ns  Scope: tb.vif.a5 File: ../SV/interface.sv Line: 100
# [drv_SETUP] : [1610] : || [PSEL = 1],[PENABLE = 0],[PREADY = 0],[PWRITE = 1],[PADDR = 3ac],[PWDATA = 8fe0324],[PRDATA = 0],[PSLVERR = 0] ||
# --------------------------------------------------------------------------------------------------------------------
# ** Info: assertion passed
#    Time: 1610 ns Started: 1610 ns  Scope: tb.vif.a5 File: ../SV/interface.sv Line: 100
# [drv_SETUP] : [1630] : || [PSEL = 1],[PENABLE = 1],[PREADY = 0],[PWRITE = 1],[PADDR = 3ac],[PWDATA = 8fe0324],[PRDATA = 0],[PSLVERR = 0] ||
# --------------------------------------------------------------------------------------------------------------------
# ** Info: assertion passed
#    Time: 1630 ns Started: 1630 ns  Scope: tb.vif.a6 File: ../SV/interface.sv Line: 108
# ** Info: assertion passed
#    Time: 1630 ns Started: 1630 ns  Scope: tb.vif.a9 File: ../SV/interface.sv Line: 132
# ** Info: assertion passed
#    Time: 1630 ns Started: 1630 ns  Scope: tb.vif.a5 File: ../SV/interface.sv Line: 100
# ** Info: assertion passed
#    Time: 1650 ns Started: 1650 ns  Scope: tb.vif.a6 File: ../SV/interface.sv Line: 108
# ** Info: assertion passed
#    Time: 1650 ns Started: 1650 ns  Scope: tb.vif.a9 File: ../SV/interface.sv Line: 132
# ** Info: assertion passed
#    Time: 1650 ns Started: 1650 ns  Scope: tb.vif.a5 File: ../SV/interface.sv Line: 100
# ** Info: assertion passed
#    Time: 1670 ns Started: 1670 ns  Scope: tb.vif.a6 File: ../SV/interface.sv Line: 108
# ** Info: assertion passed
#    Time: 1670 ns Started: 1670 ns  Scope: tb.vif.a9 File: ../SV/interface.sv Line: 132
# ** Info: assertion passed
#    Time: 1670 ns Started: 1670 ns  Scope: tb.vif.a5 File: ../SV/interface.sv Line: 100
# [drv_ACCESS_WR] : [1690] : || [PSEL = 1],[PENABLE = 1],[PREADY = 1],[PWRITE = 1],[PADDR = 3ac],[PWDATA = 0],[PSLVERR = 0] ||
# ** Info: assertion passed
#    Time: 1690 ns Started: 1690 ns  Scope: tb.vif.a6 File: ../SV/interface.sv Line: 108
# ** Info: assertion passed
#    Time: 1690 ns Started: 1690 ns  Scope: tb.vif.a9 File: ../SV/interface.sv Line: 132
# ** Info: assertion passed
#    Time: 1690 ns Started: 1690 ns  Scope: tb.vif.a5 File: ../SV/interface.sv Line: 100
# [drv_ACCESS] : [1710] : || [PSEL = 1],[PENABLE = 1],[PREADY = 0],[PWRITE = 1],[PADDR = 3ac],[PWDATA = 8fe0324],[PRDATA = 0],[PSLVERR = 0] ||
# --------------------------------------------------------------------------------------------------------------------
# [mon] : [1710] : [count_m] = {12},|| [PSEL = 1],[PENABLE = 1],[PREADY = 1],[PWRITE = 1],[PADDR = 3ac],[PWDATA = 8fe0324],[PSLVERR = 0],[PSTRB = 7] ||
# [access_t]  : || [psel = 1],[penable = 0],[pready = 1] ||, at 1710
# || [PWRITE = 1],[PADDR = 1b4],[PWDATA = 4ca06276],[PSTRB = 0] ||
# [scb] : data received from monitor at 1710 count = 12
# ** Info: [1710] : PWRITE = 1,PSLVERR = 0,PADDR = 3ac,PWDATA = 8fe0324,PRDATA = 0,PSTRB = 7
#    Time: 1710 ns  Scope: file_pkg.apb_slave_transaction.display File: ../SV/apb_slave_transaction.sv Line: 20
# ________________________________
# [scb] : [1710] ==> [wr_count_scb] = {11}  write operation done successfully
# [pass_count = 1],[fail_count = 0]
# ** Info: assertion passed
#    Time: 1710 ns Started: 1710 ns  Scope: tb.vif.a7 File: ../SV/interface.sv Line: 115
# ** Info: assertion passed
#    Time: 1710 ns Started: 1710 ns  Scope: tb.vif.a6 File: ../SV/interface.sv Line: 108
# ** Info: assertion passed
#    Time: 1710 ns Started: 1710 ns  Scope: tb.vif.a5 File: ../SV/interface.sv Line: 100
# [drv_ACCESS] : [1730] : || [PSEL = 1],[PENABLE = 0],[PREADY = 0],[PWRITE = 1],[PADDR = 3ac],[PWDATA = 8fe0324],[PRDATA = 0],[PSLVERR = 0] ||
# --------------------------------------------------------------------------------------------------------------------
# [SETUP_t] : || [psel = 1],[penable = 0],[pready = 0],[PSTRB = 0] ||, at 1730
# ----------------------------------------------------------------------------------------------------------
# ** Info: assertion passed
#    Time: 1730 ns Started: 1710 ns  Scope: tb.vif.a3 File: ../SV/interface.sv Line: 84
# ** Info: assertion passed
#    Time: 1730 ns Started: 1730 ns  Scope: tb.vif.a5 File: ../SV/interface.sv Line: 100
# [drv_SETUP] : [1750] : || [PSEL = 1],[PENABLE = 0],[PREADY = 0],[PWRITE = 1],[PADDR = 1b4],[PWDATA = 4ca06276],[PRDATA = 0],[PSLVERR = 0] ||
# --------------------------------------------------------------------------------------------------------------------
# ** Info: assertion passed
#    Time: 1750 ns Started: 1750 ns  Scope: tb.vif.a5 File: ../SV/interface.sv Line: 100
# [drv_SETUP] : [1770] : || [PSEL = 1],[PENABLE = 1],[PREADY = 0],[PWRITE = 1],[PADDR = 1b4],[PWDATA = 4ca06276],[PRDATA = 0],[PSLVERR = 0] ||
# --------------------------------------------------------------------------------------------------------------------
# ** Info: assertion passed
#    Time: 1770 ns Started: 1770 ns  Scope: tb.vif.a6 File: ../SV/interface.sv Line: 108
# ** Info: assertion passed
#    Time: 1770 ns Started: 1770 ns  Scope: tb.vif.a9 File: ../SV/interface.sv Line: 132
# ** Info: assertion passed
#    Time: 1770 ns Started: 1770 ns  Scope: tb.vif.a5 File: ../SV/interface.sv Line: 100
# ** Info: assertion passed
#    Time: 1790 ns Started: 1790 ns  Scope: tb.vif.a6 File: ../SV/interface.sv Line: 108
# ** Info: assertion passed
#    Time: 1790 ns Started: 1790 ns  Scope: tb.vif.a9 File: ../SV/interface.sv Line: 132
# ** Info: assertion passed
#    Time: 1790 ns Started: 1790 ns  Scope: tb.vif.a5 File: ../SV/interface.sv Line: 100
# ** Info: assertion passed
#    Time: 1810 ns Started: 1810 ns  Scope: tb.vif.a6 File: ../SV/interface.sv Line: 108
# ** Info: assertion passed
#    Time: 1810 ns Started: 1810 ns  Scope: tb.vif.a9 File: ../SV/interface.sv Line: 132
# ** Info: assertion passed
#    Time: 1810 ns Started: 1810 ns  Scope: tb.vif.a5 File: ../SV/interface.sv Line: 100
# [drv_ACCESS_WR] : [1830] : || [PSEL = 1],[PENABLE = 1],[PREADY = 1],[PWRITE = 1],[PADDR = 1b4],[PWDATA = 0],[PSLVERR = 0] ||
# ** Info: assertion passed
#    Time: 1830 ns Started: 1830 ns  Scope: tb.vif.a6 File: ../SV/interface.sv Line: 108
# ** Info: assertion passed
#    Time: 1830 ns Started: 1830 ns  Scope: tb.vif.a9 File: ../SV/interface.sv Line: 132
# ** Info: assertion passed
#    Time: 1830 ns Started: 1830 ns  Scope: tb.vif.a5 File: ../SV/interface.sv Line: 100
# [drv_ACCESS] : [1850] : || [PSEL = 1],[PENABLE = 1],[PREADY = 0],[PWRITE = 1],[PADDR = 1b4],[PWDATA = 4ca06276],[PRDATA = 0],[PSLVERR = 0] ||
# --------------------------------------------------------------------------------------------------------------------
# [mon] : [1850] : [count_m] = {13},|| [PSEL = 1],[PENABLE = 1],[PREADY = 1],[PWRITE = 1],[PADDR = 1b4],[PWDATA = 4ca06276],[PSLVERR = 0],[PSTRB = 0] ||
# [access_t]  : || [psel = 1],[penable = 0],[pready = 1] ||, at 1850
# || [PWRITE = 1],[PADDR = c6],[PWDATA = f0d7f7bd],[PSTRB = 2] ||
# [scb] : data received from monitor at 1850 count = 13
# ** Info: [1850] : PWRITE = 1,PSLVERR = 0,PADDR = 1b4,PWDATA = 4ca06276,PRDATA = 0,PSTRB = 0
#    Time: 1850 ns  Scope: file_pkg.apb_slave_transaction.display File: ../SV/apb_slave_transaction.sv Line: 20
# ________________________________
# [scb] : [1850] ==> [wr_count_scb] = {12}  write operation done successfully
# [pass_count = 1],[fail_count = 0]
# ** Info: assertion passed
#    Time: 1850 ns Started: 1850 ns  Scope: tb.vif.a7 File: ../SV/interface.sv Line: 115
# ** Info: assertion passed
#    Time: 1850 ns Started: 1850 ns  Scope: tb.vif.a6 File: ../SV/interface.sv Line: 108
# ** Info: assertion passed
#    Time: 1850 ns Started: 1850 ns  Scope: tb.vif.a5 File: ../SV/interface.sv Line: 100
# [drv_ACCESS] : [1870] : || [PSEL = 1],[PENABLE = 0],[PREADY = 0],[PWRITE = 1],[PADDR = 1b4],[PWDATA = 4ca06276],[PRDATA = 0],[PSLVERR = 0] ||
# --------------------------------------------------------------------------------------------------------------------
# [SETUP_t] : || [psel = 1],[penable = 0],[pready = 0],[PSTRB = 2] ||, at 1870
# ----------------------------------------------------------------------------------------------------------
# ** Info: assertion passed
#    Time: 1870 ns Started: 1850 ns  Scope: tb.vif.a3 File: ../SV/interface.sv Line: 84
# ** Info: assertion passed
#    Time: 1870 ns Started: 1870 ns  Scope: tb.vif.a5 File: ../SV/interface.sv Line: 100
# [drv_SETUP] : [1890] : || [PSEL = 1],[PENABLE = 0],[PREADY = 0],[PWRITE = 1],[PADDR = c6],[PWDATA = f0d7f7bd],[PRDATA = 0],[PSLVERR = 0] ||
# --------------------------------------------------------------------------------------------------------------------
# ** Info: assertion passed
#    Time: 1890 ns Started: 1890 ns  Scope: tb.vif.a5 File: ../SV/interface.sv Line: 100
# [drv_SETUP] : [1910] : || [PSEL = 1],[PENABLE = 1],[PREADY = 0],[PWRITE = 1],[PADDR = c6],[PWDATA = f0d7f7bd],[PRDATA = 0],[PSLVERR = 0] ||
# --------------------------------------------------------------------------------------------------------------------
# ** Info: assertion passed
#    Time: 1910 ns Started: 1910 ns  Scope: tb.vif.a6 File: ../SV/interface.sv Line: 108
# ** Info: assertion passed
#    Time: 1910 ns Started: 1910 ns  Scope: tb.vif.a9 File: ../SV/interface.sv Line: 132
# ** Info: assertion passed
#    Time: 1910 ns Started: 1910 ns  Scope: tb.vif.a5 File: ../SV/interface.sv Line: 100
# ** Info: assertion passed
#    Time: 1930 ns Started: 1930 ns  Scope: tb.vif.a6 File: ../SV/interface.sv Line: 108
# ** Info: assertion passed
#    Time: 1930 ns Started: 1930 ns  Scope: tb.vif.a9 File: ../SV/interface.sv Line: 132
# ** Info: assertion passed
#    Time: 1930 ns Started: 1930 ns  Scope: tb.vif.a5 File: ../SV/interface.sv Line: 100
# ** Info: assertion passed
#    Time: 1950 ns Started: 1950 ns  Scope: tb.vif.a6 File: ../SV/interface.sv Line: 108
# ** Info: assertion passed
#    Time: 1950 ns Started: 1950 ns  Scope: tb.vif.a9 File: ../SV/interface.sv Line: 132
# ** Info: assertion passed
#    Time: 1950 ns Started: 1950 ns  Scope: tb.vif.a5 File: ../SV/interface.sv Line: 100
# [drv_ACCESS_WR] : [1970] : || [PSEL = 1],[PENABLE = 1],[PREADY = 1],[PWRITE = 1],[PADDR = c6],[PWDATA = 0],[PSLVERR = 0] ||
# ** Info: assertion passed
#    Time: 1970 ns Started: 1970 ns  Scope: tb.vif.a6 File: ../SV/interface.sv Line: 108
# ** Info: assertion passed
#    Time: 1970 ns Started: 1970 ns  Scope: tb.vif.a9 File: ../SV/interface.sv Line: 132
# ** Info: assertion passed
#    Time: 1970 ns Started: 1970 ns  Scope: tb.vif.a5 File: ../SV/interface.sv Line: 100
# [drv_ACCESS] : [1990] : || [PSEL = 1],[PENABLE = 1],[PREADY = 0],[PWRITE = 1],[PADDR = c6],[PWDATA = f0d7f7bd],[PRDATA = 0],[PSLVERR = 0] ||
# --------------------------------------------------------------------------------------------------------------------
# [mon] : [1990] : [count_m] = {14},|| [PSEL = 1],[PENABLE = 1],[PREADY = 1],[PWRITE = 1],[PADDR = c6],[PWDATA = f0d7f7bd],[PSLVERR = 0],[PSTRB = 2] ||
# [access_t]  : || [psel = 1],[penable = 0],[pready = 1] ||, at 1990
# || [PWRITE = 1],[PADDR = 1fc],[PWDATA = 9a3b07bd],[PSTRB = 4] ||
# [scb] : data received from monitor at 1990 count = 14
# ** Info: [1990] : PWRITE = 1,PSLVERR = 0,PADDR = c6,PWDATA = f0d7f7bd,PRDATA = 0,PSTRB = 2
#    Time: 1990 ns  Scope: file_pkg.apb_slave_transaction.display File: ../SV/apb_slave_transaction.sv Line: 20
# ________________________________
# [scb] : [1990] ==> [wr_count_scb] = {13}  write operation done successfully
# [pass_count = 1],[fail_count = 0]
# ** Info: assertion passed
#    Time: 1990 ns Started: 1990 ns  Scope: tb.vif.a7 File: ../SV/interface.sv Line: 115
# ** Info: assertion passed
#    Time: 1990 ns Started: 1990 ns  Scope: tb.vif.a6 File: ../SV/interface.sv Line: 108
# ** Info: assertion passed
#    Time: 1990 ns Started: 1990 ns  Scope: tb.vif.a5 File: ../SV/interface.sv Line: 100
# [drv_ACCESS] : [2010] : || [PSEL = 1],[PENABLE = 0],[PREADY = 0],[PWRITE = 1],[PADDR = c6],[PWDATA = f0d7f7bd],[PRDATA = 0],[PSLVERR = 0] ||
# --------------------------------------------------------------------------------------------------------------------
# [SETUP_t] : || [psel = 1],[penable = 0],[pready = 0],[PSTRB = 4] ||, at 2010
# ----------------------------------------------------------------------------------------------------------
# ** Info: assertion passed
#    Time: 2010 ns Started: 1990 ns  Scope: tb.vif.a3 File: ../SV/interface.sv Line: 84
# ** Info: assertion passed
#    Time: 2010 ns Started: 2010 ns  Scope: tb.vif.a5 File: ../SV/interface.sv Line: 100
# [drv_SETUP] : [2030] : || [PSEL = 1],[PENABLE = 0],[PREADY = 0],[PWRITE = 1],[PADDR = 1fc],[PWDATA = 9a3b07bd],[PRDATA = 0],[PSLVERR = 0] ||
# --------------------------------------------------------------------------------------------------------------------
# ** Info: assertion passed
#    Time: 2030 ns Started: 2030 ns  Scope: tb.vif.a5 File: ../SV/interface.sv Line: 100
# [drv_SETUP] : [2050] : || [PSEL = 1],[PENABLE = 1],[PREADY = 0],[PWRITE = 1],[PADDR = 1fc],[PWDATA = 9a3b07bd],[PRDATA = 0],[PSLVERR = 0] ||
# --------------------------------------------------------------------------------------------------------------------
# ** Info: assertion passed
#    Time: 2050 ns Started: 2050 ns  Scope: tb.vif.a6 File: ../SV/interface.sv Line: 108
# ** Info: assertion passed
#    Time: 2050 ns Started: 2050 ns  Scope: tb.vif.a9 File: ../SV/interface.sv Line: 132
# ** Info: assertion passed
#    Time: 2050 ns Started: 2050 ns  Scope: tb.vif.a5 File: ../SV/interface.sv Line: 100
# ** Info: assertion passed
#    Time: 2070 ns Started: 2070 ns  Scope: tb.vif.a6 File: ../SV/interface.sv Line: 108
# ** Info: assertion passed
#    Time: 2070 ns Started: 2070 ns  Scope: tb.vif.a9 File: ../SV/interface.sv Line: 132
# ** Info: assertion passed
#    Time: 2070 ns Started: 2070 ns  Scope: tb.vif.a5 File: ../SV/interface.sv Line: 100
# ** Info: assertion passed
#    Time: 2090 ns Started: 2090 ns  Scope: tb.vif.a6 File: ../SV/interface.sv Line: 108
# ** Info: assertion passed
#    Time: 2090 ns Started: 2090 ns  Scope: tb.vif.a9 File: ../SV/interface.sv Line: 132
# ** Info: assertion passed
#    Time: 2090 ns Started: 2090 ns  Scope: tb.vif.a5 File: ../SV/interface.sv Line: 100
# [drv_ACCESS_WR] : [2110] : || [PSEL = 1],[PENABLE = 1],[PREADY = 1],[PWRITE = 1],[PADDR = 1fc],[PWDATA = 0],[PSLVERR = 0] ||
# ** Info: assertion passed
#    Time: 2110 ns Started: 2110 ns  Scope: tb.vif.a6 File: ../SV/interface.sv Line: 108
# ** Info: assertion passed
#    Time: 2110 ns Started: 2110 ns  Scope: tb.vif.a9 File: ../SV/interface.sv Line: 132
# ** Info: assertion passed
#    Time: 2110 ns Started: 2110 ns  Scope: tb.vif.a5 File: ../SV/interface.sv Line: 100
# [drv_ACCESS] : [2130] : || [PSEL = 1],[PENABLE = 1],[PREADY = 0],[PWRITE = 1],[PADDR = 1fc],[PWDATA = 9a3b07bd],[PRDATA = 0],[PSLVERR = 0] ||
# --------------------------------------------------------------------------------------------------------------------
# [mon] : [2130] : [count_m] = {15},|| [PSEL = 1],[PENABLE = 1],[PREADY = 1],[PWRITE = 1],[PADDR = 1fc],[PWDATA = 9a3b07bd],[PSLVERR = 0],[PSTRB = 4] ||
# [access_t]  : || [psel = 1],[penable = 0],[pready = 1] ||, at 2130
# || [PWRITE = 1],[PADDR = 9],[PWDATA = 3f79ed09],[PSTRB = e] ||
# [scb] : data received from monitor at 2130 count = 15
# ** Info: [2130] : PWRITE = 1,PSLVERR = 0,PADDR = 1fc,PWDATA = 9a3b07bd,PRDATA = 0,PSTRB = 4
#    Time: 2130 ns  Scope: file_pkg.apb_slave_transaction.display File: ../SV/apb_slave_transaction.sv Line: 20
# ________________________________
# [scb] : [2130] ==> [wr_count_scb] = {14}  write operation done successfully
# [pass_count = 1],[fail_count = 0]
# ** Info: assertion passed
#    Time: 2130 ns Started: 2130 ns  Scope: tb.vif.a7 File: ../SV/interface.sv Line: 115
# ** Info: assertion passed
#    Time: 2130 ns Started: 2130 ns  Scope: tb.vif.a6 File: ../SV/interface.sv Line: 108
# ** Info: assertion passed
#    Time: 2130 ns Started: 2130 ns  Scope: tb.vif.a5 File: ../SV/interface.sv Line: 100
# [drv_ACCESS] : [2150] : || [PSEL = 1],[PENABLE = 0],[PREADY = 0],[PWRITE = 1],[PADDR = 1fc],[PWDATA = 9a3b07bd],[PRDATA = 0],[PSLVERR = 0] ||
# --------------------------------------------------------------------------------------------------------------------
# [SETUP_t] : || [psel = 1],[penable = 0],[pready = 0],[PSTRB = e] ||, at 2150
# ----------------------------------------------------------------------------------------------------------
# ** Info: assertion passed
#    Time: 2150 ns Started: 2130 ns  Scope: tb.vif.a3 File: ../SV/interface.sv Line: 84
# ** Info: assertion passed
#    Time: 2150 ns Started: 2150 ns  Scope: tb.vif.a5 File: ../SV/interface.sv Line: 100
# [drv_SETUP] : [2170] : || [PSEL = 1],[PENABLE = 0],[PREADY = 0],[PWRITE = 1],[PADDR = 9],[PWDATA = 3f79ed09],[PRDATA = 0],[PSLVERR = 0] ||
# --------------------------------------------------------------------------------------------------------------------
# ** Info: assertion passed
#    Time: 2170 ns Started: 2170 ns  Scope: tb.vif.a5 File: ../SV/interface.sv Line: 100
# [drv_SETUP] : [2190] : || [PSEL = 1],[PENABLE = 1],[PREADY = 0],[PWRITE = 1],[PADDR = 9],[PWDATA = 3f79ed09],[PRDATA = 0],[PSLVERR = 0] ||
# --------------------------------------------------------------------------------------------------------------------
# ** Info: assertion passed
#    Time: 2190 ns Started: 2190 ns  Scope: tb.vif.a6 File: ../SV/interface.sv Line: 108
# ** Info: assertion passed
#    Time: 2190 ns Started: 2190 ns  Scope: tb.vif.a9 File: ../SV/interface.sv Line: 132
# ** Info: assertion passed
#    Time: 2190 ns Started: 2190 ns  Scope: tb.vif.a5 File: ../SV/interface.sv Line: 100
# ** Info: assertion passed
#    Time: 2210 ns Started: 2210 ns  Scope: tb.vif.a6 File: ../SV/interface.sv Line: 108
# ** Info: assertion passed
#    Time: 2210 ns Started: 2210 ns  Scope: tb.vif.a9 File: ../SV/interface.sv Line: 132
# ** Info: assertion passed
#    Time: 2210 ns Started: 2210 ns  Scope: tb.vif.a5 File: ../SV/interface.sv Line: 100
# ** Info: assertion passed
#    Time: 2230 ns Started: 2230 ns  Scope: tb.vif.a6 File: ../SV/interface.sv Line: 108
# ** Info: assertion passed
#    Time: 2230 ns Started: 2230 ns  Scope: tb.vif.a9 File: ../SV/interface.sv Line: 132
# ** Info: assertion passed
#    Time: 2230 ns Started: 2230 ns  Scope: tb.vif.a5 File: ../SV/interface.sv Line: 100
# [drv_ACCESS_WR] : [2250] : || [PSEL = 1],[PENABLE = 1],[PREADY = 1],[PWRITE = 1],[PADDR = 9],[PWDATA = 0],[PSLVERR = 0] ||
# ** Info: assertion passed
#    Time: 2250 ns Started: 2250 ns  Scope: tb.vif.a6 File: ../SV/interface.sv Line: 108
# ** Info: assertion passed
#    Time: 2250 ns Started: 2250 ns  Scope: tb.vif.a9 File: ../SV/interface.sv Line: 132
# ** Info: assertion passed
#    Time: 2250 ns Started: 2250 ns  Scope: tb.vif.a5 File: ../SV/interface.sv Line: 100
# [drv_ACCESS] : [2270] : || [PSEL = 1],[PENABLE = 1],[PREADY = 0],[PWRITE = 1],[PADDR = 9],[PWDATA = 3f79ed09],[PRDATA = 0],[PSLVERR = 0] ||
# --------------------------------------------------------------------------------------------------------------------
# [mon] : [2270] : [count_m] = {16},|| [PSEL = 1],[PENABLE = 1],[PREADY = 1],[PWRITE = 1],[PADDR = 9],[PWDATA = 3f79ed09],[PSLVERR = 0],[PSTRB = e] ||
# [access_t]  : || [psel = 1],[penable = 0],[pready = 1] ||, at 2270
# || [PWRITE = 1],[PADDR = 2c1],[PWDATA = 566f80d7],[PSTRB = 1] ||
# [scb] : data received from monitor at 2270 count = 16
# ** Info: [2270] : PWRITE = 1,PSLVERR = 0,PADDR = 9,PWDATA = 3f79ed09,PRDATA = 0,PSTRB = e
#    Time: 2270 ns  Scope: file_pkg.apb_slave_transaction.display File: ../SV/apb_slave_transaction.sv Line: 20
# ________________________________
# [scb] : [2270] ==> [wr_count_scb] = {15}  write operation done successfully
# [pass_count = 1],[fail_count = 0]
# ** Info: assertion passed
#    Time: 2270 ns Started: 2270 ns  Scope: tb.vif.a7 File: ../SV/interface.sv Line: 115
# ** Info: assertion passed
#    Time: 2270 ns Started: 2270 ns  Scope: tb.vif.a6 File: ../SV/interface.sv Line: 108
# ** Info: assertion passed
#    Time: 2270 ns Started: 2270 ns  Scope: tb.vif.a5 File: ../SV/interface.sv Line: 100
# [drv_ACCESS] : [2290] : || [PSEL = 1],[PENABLE = 0],[PREADY = 0],[PWRITE = 1],[PADDR = 9],[PWDATA = 3f79ed09],[PRDATA = 0],[PSLVERR = 0] ||
# --------------------------------------------------------------------------------------------------------------------
# [SETUP_t] : || [psel = 1],[penable = 0],[pready = 0],[PSTRB = 1] ||, at 2290
# ----------------------------------------------------------------------------------------------------------
# ** Info: assertion passed
#    Time: 2290 ns Started: 2270 ns  Scope: tb.vif.a3 File: ../SV/interface.sv Line: 84
# ** Info: assertion passed
#    Time: 2290 ns Started: 2290 ns  Scope: tb.vif.a5 File: ../SV/interface.sv Line: 100
# [drv_SETUP] : [2310] : || [PSEL = 1],[PENABLE = 0],[PREADY = 0],[PWRITE = 1],[PADDR = 2c1],[PWDATA = 566f80d7],[PRDATA = 0],[PSLVERR = 0] ||
# --------------------------------------------------------------------------------------------------------------------
# ** Info: assertion passed
#    Time: 2310 ns Started: 2310 ns  Scope: tb.vif.a5 File: ../SV/interface.sv Line: 100
# [drv_SETUP] : [2330] : || [PSEL = 1],[PENABLE = 1],[PREADY = 0],[PWRITE = 1],[PADDR = 2c1],[PWDATA = 566f80d7],[PRDATA = 0],[PSLVERR = 0] ||
# --------------------------------------------------------------------------------------------------------------------
# ** Info: assertion passed
#    Time: 2330 ns Started: 2330 ns  Scope: tb.vif.a6 File: ../SV/interface.sv Line: 108
# ** Info: assertion passed
#    Time: 2330 ns Started: 2330 ns  Scope: tb.vif.a9 File: ../SV/interface.sv Line: 132
# ** Info: assertion passed
#    Time: 2330 ns Started: 2330 ns  Scope: tb.vif.a5 File: ../SV/interface.sv Line: 100
# ** Info: assertion passed
#    Time: 2350 ns Started: 2350 ns  Scope: tb.vif.a6 File: ../SV/interface.sv Line: 108
# ** Info: assertion passed
#    Time: 2350 ns Started: 2350 ns  Scope: tb.vif.a9 File: ../SV/interface.sv Line: 132
# ** Info: assertion passed
#    Time: 2350 ns Started: 2350 ns  Scope: tb.vif.a5 File: ../SV/interface.sv Line: 100
# ** Info: assertion passed
#    Time: 2370 ns Started: 2370 ns  Scope: tb.vif.a6 File: ../SV/interface.sv Line: 108
# ** Info: assertion passed
#    Time: 2370 ns Started: 2370 ns  Scope: tb.vif.a9 File: ../SV/interface.sv Line: 132
# ** Info: assertion passed
#    Time: 2370 ns Started: 2370 ns  Scope: tb.vif.a5 File: ../SV/interface.sv Line: 100
# [drv_ACCESS_WR] : [2390] : || [PSEL = 1],[PENABLE = 1],[PREADY = 1],[PWRITE = 1],[PADDR = 2c1],[PWDATA = 0],[PSLVERR = 0] ||
# ** Info: assertion passed
#    Time: 2390 ns Started: 2390 ns  Scope: tb.vif.a6 File: ../SV/interface.sv Line: 108
# ** Info: assertion passed
#    Time: 2390 ns Started: 2390 ns  Scope: tb.vif.a9 File: ../SV/interface.sv Line: 132
# ** Info: assertion passed
#    Time: 2390 ns Started: 2390 ns  Scope: tb.vif.a5 File: ../SV/interface.sv Line: 100
# [drv_ACCESS] : [2410] : || [PSEL = 1],[PENABLE = 1],[PREADY = 0],[PWRITE = 1],[PADDR = 2c1],[PWDATA = 566f80d7],[PRDATA = 0],[PSLVERR = 0] ||
# --------------------------------------------------------------------------------------------------------------------
# [mon] : [2410] : [count_m] = {17},|| [PSEL = 1],[PENABLE = 1],[PREADY = 1],[PWRITE = 1],[PADDR = 2c1],[PWDATA = 566f80d7],[PSLVERR = 0],[PSTRB = 1] ||
# [access_t]  : || [psel = 1],[penable = 0],[pready = 1] ||, at 2410
# || [PWRITE = 1],[PADDR = 283],[PWDATA = 9b2f9441],[PSTRB = b] ||
# [scb] : data received from monitor at 2410 count = 17
# ** Info: [2410] : PWRITE = 1,PSLVERR = 0,PADDR = 2c1,PWDATA = 566f80d7,PRDATA = 0,PSTRB = 1
#    Time: 2410 ns  Scope: file_pkg.apb_slave_transaction.display File: ../SV/apb_slave_transaction.sv Line: 20
# ________________________________
# [scb] : [2410] ==> [wr_count_scb] = {16}  write operation done successfully
# [pass_count = 1],[fail_count = 0]
# ** Info: assertion passed
#    Time: 2410 ns Started: 2410 ns  Scope: tb.vif.a7 File: ../SV/interface.sv Line: 115
# ** Info: assertion passed
#    Time: 2410 ns Started: 2410 ns  Scope: tb.vif.a6 File: ../SV/interface.sv Line: 108
# ** Info: assertion passed
#    Time: 2410 ns Started: 2410 ns  Scope: tb.vif.a5 File: ../SV/interface.sv Line: 100
# [drv_ACCESS] : [2430] : || [PSEL = 1],[PENABLE = 0],[PREADY = 0],[PWRITE = 1],[PADDR = 2c1],[PWDATA = 566f80d7],[PRDATA = 0],[PSLVERR = 0] ||
# --------------------------------------------------------------------------------------------------------------------
# [SETUP_t] : || [psel = 1],[penable = 0],[pready = 0],[PSTRB = b] ||, at 2430
# ----------------------------------------------------------------------------------------------------------
# ** Info: assertion passed
#    Time: 2430 ns Started: 2410 ns  Scope: tb.vif.a3 File: ../SV/interface.sv Line: 84
# ** Info: assertion passed
#    Time: 2430 ns Started: 2430 ns  Scope: tb.vif.a5 File: ../SV/interface.sv Line: 100
# [drv_SETUP] : [2450] : || [PSEL = 1],[PENABLE = 0],[PREADY = 0],[PWRITE = 1],[PADDR = 283],[PWDATA = 9b2f9441],[PRDATA = 0],[PSLVERR = 0] ||
# --------------------------------------------------------------------------------------------------------------------
# ** Info: assertion passed
#    Time: 2450 ns Started: 2450 ns  Scope: tb.vif.a5 File: ../SV/interface.sv Line: 100
# [drv_SETUP] : [2470] : || [PSEL = 1],[PENABLE = 1],[PREADY = 0],[PWRITE = 1],[PADDR = 283],[PWDATA = 9b2f9441],[PRDATA = 0],[PSLVERR = 0] ||
# --------------------------------------------------------------------------------------------------------------------
# ** Info: assertion passed
#    Time: 2470 ns Started: 2470 ns  Scope: tb.vif.a6 File: ../SV/interface.sv Line: 108
# ** Info: assertion passed
#    Time: 2470 ns Started: 2470 ns  Scope: tb.vif.a9 File: ../SV/interface.sv Line: 132
# ** Info: assertion passed
#    Time: 2470 ns Started: 2470 ns  Scope: tb.vif.a5 File: ../SV/interface.sv Line: 100
# ** Info: assertion passed
#    Time: 2490 ns Started: 2490 ns  Scope: tb.vif.a6 File: ../SV/interface.sv Line: 108
# ** Info: assertion passed
#    Time: 2490 ns Started: 2490 ns  Scope: tb.vif.a9 File: ../SV/interface.sv Line: 132
# ** Info: assertion passed
#    Time: 2490 ns Started: 2490 ns  Scope: tb.vif.a5 File: ../SV/interface.sv Line: 100
# ** Info: assertion passed
#    Time: 2510 ns Started: 2510 ns  Scope: tb.vif.a6 File: ../SV/interface.sv Line: 108
# ** Info: assertion passed
#    Time: 2510 ns Started: 2510 ns  Scope: tb.vif.a9 File: ../SV/interface.sv Line: 132
# ** Info: assertion passed
#    Time: 2510 ns Started: 2510 ns  Scope: tb.vif.a5 File: ../SV/interface.sv Line: 100
# [drv_ACCESS_WR] : [2530] : || [PSEL = 1],[PENABLE = 1],[PREADY = 1],[PWRITE = 1],[PADDR = 283],[PWDATA = 0],[PSLVERR = 0] ||
# ** Info: assertion passed
#    Time: 2530 ns Started: 2530 ns  Scope: tb.vif.a6 File: ../SV/interface.sv Line: 108
# ** Info: assertion passed
#    Time: 2530 ns Started: 2530 ns  Scope: tb.vif.a9 File: ../SV/interface.sv Line: 132
# ** Info: assertion passed
#    Time: 2530 ns Started: 2530 ns  Scope: tb.vif.a5 File: ../SV/interface.sv Line: 100
# [drv_ACCESS] : [2550] : || [PSEL = 1],[PENABLE = 1],[PREADY = 0],[PWRITE = 1],[PADDR = 283],[PWDATA = 9b2f9441],[PRDATA = 0],[PSLVERR = 0] ||
# --------------------------------------------------------------------------------------------------------------------
# [mon] : [2550] : [count_m] = {18},|| [PSEL = 1],[PENABLE = 1],[PREADY = 1],[PWRITE = 1],[PADDR = 283],[PWDATA = 9b2f9441],[PSLVERR = 0],[PSTRB = b] ||
# [access_t]  : || [psel = 1],[penable = 0],[pready = 1] ||, at 2550
# || [PWRITE = 1],[PADDR = a9],[PWDATA = 155c8b8],[PSTRB = 2] ||
# [scb] : data received from monitor at 2550 count = 18
# ** Info: [2550] : PWRITE = 1,PSLVERR = 0,PADDR = 283,PWDATA = 9b2f9441,PRDATA = 0,PSTRB = b
#    Time: 2550 ns  Scope: file_pkg.apb_slave_transaction.display File: ../SV/apb_slave_transaction.sv Line: 20
# ________________________________
# [scb] : [2550] ==> [wr_count_scb] = {17}  write operation done successfully
# [pass_count = 1],[fail_count = 0]
# ** Info: assertion passed
#    Time: 2550 ns Started: 2550 ns  Scope: tb.vif.a7 File: ../SV/interface.sv Line: 115
# ** Info: assertion passed
#    Time: 2550 ns Started: 2550 ns  Scope: tb.vif.a6 File: ../SV/interface.sv Line: 108
# ** Info: assertion passed
#    Time: 2550 ns Started: 2550 ns  Scope: tb.vif.a5 File: ../SV/interface.sv Line: 100
# [drv_ACCESS] : [2570] : || [PSEL = 1],[PENABLE = 0],[PREADY = 0],[PWRITE = 1],[PADDR = 283],[PWDATA = 9b2f9441],[PRDATA = 0],[PSLVERR = 0] ||
# --------------------------------------------------------------------------------------------------------------------
# [SETUP_t] : || [psel = 1],[penable = 0],[pready = 0],[PSTRB = 2] ||, at 2570
# ----------------------------------------------------------------------------------------------------------
# ** Info: assertion passed
#    Time: 2570 ns Started: 2550 ns  Scope: tb.vif.a3 File: ../SV/interface.sv Line: 84
# ** Info: assertion passed
#    Time: 2570 ns Started: 2570 ns  Scope: tb.vif.a5 File: ../SV/interface.sv Line: 100
# [drv_SETUP] : [2590] : || [PSEL = 1],[PENABLE = 0],[PREADY = 0],[PWRITE = 1],[PADDR = a9],[PWDATA = 155c8b8],[PRDATA = 0],[PSLVERR = 0] ||
# --------------------------------------------------------------------------------------------------------------------
# ** Info: assertion passed
#    Time: 2590 ns Started: 2590 ns  Scope: tb.vif.a5 File: ../SV/interface.sv Line: 100
# [drv_SETUP] : [2610] : || [PSEL = 1],[PENABLE = 1],[PREADY = 0],[PWRITE = 1],[PADDR = a9],[PWDATA = 155c8b8],[PRDATA = 0],[PSLVERR = 0] ||
# --------------------------------------------------------------------------------------------------------------------
# ** Info: assertion passed
#    Time: 2610 ns Started: 2610 ns  Scope: tb.vif.a6 File: ../SV/interface.sv Line: 108
# ** Info: assertion passed
#    Time: 2610 ns Started: 2610 ns  Scope: tb.vif.a9 File: ../SV/interface.sv Line: 132
# ** Info: assertion passed
#    Time: 2610 ns Started: 2610 ns  Scope: tb.vif.a5 File: ../SV/interface.sv Line: 100
# ** Info: assertion passed
#    Time: 2630 ns Started: 2630 ns  Scope: tb.vif.a6 File: ../SV/interface.sv Line: 108
# ** Info: assertion passed
#    Time: 2630 ns Started: 2630 ns  Scope: tb.vif.a9 File: ../SV/interface.sv Line: 132
# ** Info: assertion passed
#    Time: 2630 ns Started: 2630 ns  Scope: tb.vif.a5 File: ../SV/interface.sv Line: 100
# ** Info: assertion passed
#    Time: 2650 ns Started: 2650 ns  Scope: tb.vif.a6 File: ../SV/interface.sv Line: 108
# ** Info: assertion passed
#    Time: 2650 ns Started: 2650 ns  Scope: tb.vif.a9 File: ../SV/interface.sv Line: 132
# ** Info: assertion passed
#    Time: 2650 ns Started: 2650 ns  Scope: tb.vif.a5 File: ../SV/interface.sv Line: 100
# [drv_ACCESS_WR] : [2670] : || [PSEL = 1],[PENABLE = 1],[PREADY = 1],[PWRITE = 1],[PADDR = a9],[PWDATA = 0],[PSLVERR = 0] ||
# ** Info: assertion passed
#    Time: 2670 ns Started: 2670 ns  Scope: tb.vif.a6 File: ../SV/interface.sv Line: 108
# ** Info: assertion passed
#    Time: 2670 ns Started: 2670 ns  Scope: tb.vif.a9 File: ../SV/interface.sv Line: 132
# ** Info: assertion passed
#    Time: 2670 ns Started: 2670 ns  Scope: tb.vif.a5 File: ../SV/interface.sv Line: 100
# [drv_ACCESS] : [2690] : || [PSEL = 1],[PENABLE = 1],[PREADY = 0],[PWRITE = 1],[PADDR = a9],[PWDATA = 155c8b8],[PRDATA = 0],[PSLVERR = 0] ||
# --------------------------------------------------------------------------------------------------------------------
# [mon] : [2690] : [count_m] = {19},|| [PSEL = 1],[PENABLE = 1],[PREADY = 1],[PWRITE = 1],[PADDR = a9],[PWDATA = 155c8b8],[PSLVERR = 0],[PSTRB = 2] ||
# [access_t]  : || [psel = 1],[penable = 0],[pready = 1] ||, at 2690
# || [PWRITE = 1],[PADDR = 12a],[PWDATA = a47c838d],[PSTRB = 1] ||
# [scb] : data received from monitor at 2690 count = 19
# ** Info: [2690] : PWRITE = 1,PSLVERR = 0,PADDR = a9,PWDATA = 155c8b8,PRDATA = 0,PSTRB = 2
#    Time: 2690 ns  Scope: file_pkg.apb_slave_transaction.display File: ../SV/apb_slave_transaction.sv Line: 20
# ________________________________
# [scb] : [2690] ==> [wr_count_scb] = {18}  write operation done successfully
# [pass_count = 1],[fail_count = 0]
# ** Info: assertion passed
#    Time: 2690 ns Started: 2690 ns  Scope: tb.vif.a7 File: ../SV/interface.sv Line: 115
# ** Info: assertion passed
#    Time: 2690 ns Started: 2690 ns  Scope: tb.vif.a6 File: ../SV/interface.sv Line: 108
# ** Info: assertion passed
#    Time: 2690 ns Started: 2690 ns  Scope: tb.vif.a5 File: ../SV/interface.sv Line: 100
# [drv_ACCESS] : [2710] : || [PSEL = 1],[PENABLE = 0],[PREADY = 0],[PWRITE = 1],[PADDR = a9],[PWDATA = 155c8b8],[PRDATA = 0],[PSLVERR = 0] ||
# --------------------------------------------------------------------------------------------------------------------
# [SETUP_t] : || [psel = 1],[penable = 0],[pready = 0],[PSTRB = 1] ||, at 2710
# ----------------------------------------------------------------------------------------------------------
# ** Info: assertion passed
#    Time: 2710 ns Started: 2690 ns  Scope: tb.vif.a3 File: ../SV/interface.sv Line: 84
# ** Info: assertion passed
#    Time: 2710 ns Started: 2710 ns  Scope: tb.vif.a5 File: ../SV/interface.sv Line: 100
# [drv_SETUP] : [2730] : || [PSEL = 1],[PENABLE = 0],[PREADY = 0],[PWRITE = 1],[PADDR = 12a],[PWDATA = a47c838d],[PRDATA = 0],[PSLVERR = 0] ||
# --------------------------------------------------------------------------------------------------------------------
# ** Info: assertion passed
#    Time: 2730 ns Started: 2730 ns  Scope: tb.vif.a5 File: ../SV/interface.sv Line: 100
# [drv_SETUP] : [2750] : || [PSEL = 1],[PENABLE = 1],[PREADY = 0],[PWRITE = 1],[PADDR = 12a],[PWDATA = a47c838d],[PRDATA = 0],[PSLVERR = 0] ||
# --------------------------------------------------------------------------------------------------------------------
# ** Info: assertion passed
#    Time: 2750 ns Started: 2750 ns  Scope: tb.vif.a6 File: ../SV/interface.sv Line: 108
# ** Info: assertion passed
#    Time: 2750 ns Started: 2750 ns  Scope: tb.vif.a9 File: ../SV/interface.sv Line: 132
# ** Info: assertion passed
#    Time: 2750 ns Started: 2750 ns  Scope: tb.vif.a5 File: ../SV/interface.sv Line: 100
# ** Info: assertion passed
#    Time: 2770 ns Started: 2770 ns  Scope: tb.vif.a6 File: ../SV/interface.sv Line: 108
# ** Info: assertion passed
#    Time: 2770 ns Started: 2770 ns  Scope: tb.vif.a9 File: ../SV/interface.sv Line: 132
# ** Info: assertion passed
#    Time: 2770 ns Started: 2770 ns  Scope: tb.vif.a5 File: ../SV/interface.sv Line: 100
# ** Info: assertion passed
#    Time: 2790 ns Started: 2790 ns  Scope: tb.vif.a6 File: ../SV/interface.sv Line: 108
# ** Info: assertion passed
#    Time: 2790 ns Started: 2790 ns  Scope: tb.vif.a9 File: ../SV/interface.sv Line: 132
# ** Info: assertion passed
#    Time: 2790 ns Started: 2790 ns  Scope: tb.vif.a5 File: ../SV/interface.sv Line: 100
# [drv_ACCESS_WR] : [2810] : || [PSEL = 1],[PENABLE = 1],[PREADY = 1],[PWRITE = 1],[PADDR = 12a],[PWDATA = 0],[PSLVERR = 0] ||
# ** Info: assertion passed
#    Time: 2810 ns Started: 2810 ns  Scope: tb.vif.a6 File: ../SV/interface.sv Line: 108
# ** Info: assertion passed
#    Time: 2810 ns Started: 2810 ns  Scope: tb.vif.a9 File: ../SV/interface.sv Line: 132
# ** Info: assertion passed
#    Time: 2810 ns Started: 2810 ns  Scope: tb.vif.a5 File: ../SV/interface.sv Line: 100
# [drv_ACCESS] : [2830] : || [PSEL = 1],[PENABLE = 1],[PREADY = 0],[PWRITE = 1],[PADDR = 12a],[PWDATA = a47c838d],[PRDATA = 0],[PSLVERR = 0] ||
# --------------------------------------------------------------------------------------------------------------------
# [mon] : [2830] : [count_m] = {20},|| [PSEL = 1],[PENABLE = 1],[PREADY = 1],[PWRITE = 1],[PADDR = 12a],[PWDATA = a47c838d],[PSLVERR = 0],[PSTRB = 1] ||
# [access_t]  : || [psel = 1],[penable = 0],[pready = 1] ||, at 2830
# || [PWRITE = 1],[PADDR = 248],[PWDATA = 2a7cdee8],[PSTRB = 2] ||
# [scb] : data received from monitor at 2830 count = 20
# ** Info: [2830] : PWRITE = 1,PSLVERR = 0,PADDR = 12a,PWDATA = a47c838d,PRDATA = 0,PSTRB = 1
#    Time: 2830 ns  Scope: file_pkg.apb_slave_transaction.display File: ../SV/apb_slave_transaction.sv Line: 20
# ________________________________
# [scb] : [2830] ==> [wr_count_scb] = {19}  write operation done successfully
# [pass_count = 1],[fail_count = 0]
# ** Info: assertion passed
#    Time: 2830 ns Started: 2830 ns  Scope: tb.vif.a7 File: ../SV/interface.sv Line: 115
# ** Info: assertion passed
#    Time: 2830 ns Started: 2830 ns  Scope: tb.vif.a6 File: ../SV/interface.sv Line: 108
# ** Info: assertion passed
#    Time: 2830 ns Started: 2830 ns  Scope: tb.vif.a5 File: ../SV/interface.sv Line: 100
# [drv_ACCESS] : [2850] : || [PSEL = 1],[PENABLE = 0],[PREADY = 0],[PWRITE = 1],[PADDR = 12a],[PWDATA = a47c838d],[PRDATA = 0],[PSLVERR = 0] ||
# --------------------------------------------------------------------------------------------------------------------
# [SETUP_t] : || [psel = 1],[penable = 0],[pready = 0],[PSTRB = 2] ||, at 2850
# ----------------------------------------------------------------------------------------------------------
# ** Info: assertion passed
#    Time: 2850 ns Started: 2830 ns  Scope: tb.vif.a3 File: ../SV/interface.sv Line: 84
# ** Info: assertion passed
#    Time: 2850 ns Started: 2850 ns  Scope: tb.vif.a5 File: ../SV/interface.sv Line: 100
# [drv_SETUP] : [2870] : || [PSEL = 1],[PENABLE = 0],[PREADY = 0],[PWRITE = 1],[PADDR = 248],[PWDATA = 2a7cdee8],[PRDATA = 0],[PSLVERR = 0] ||
# --------------------------------------------------------------------------------------------------------------------
# ** Info: assertion passed
#    Time: 2870 ns Started: 2870 ns  Scope: tb.vif.a5 File: ../SV/interface.sv Line: 100
# [drv_SETUP] : [2890] : || [PSEL = 1],[PENABLE = 1],[PREADY = 0],[PWRITE = 1],[PADDR = 248],[PWDATA = 2a7cdee8],[PRDATA = 0],[PSLVERR = 0] ||
# --------------------------------------------------------------------------------------------------------------------
# ** Info: assertion passed
#    Time: 2890 ns Started: 2890 ns  Scope: tb.vif.a6 File: ../SV/interface.sv Line: 108
# ** Info: assertion passed
#    Time: 2890 ns Started: 2890 ns  Scope: tb.vif.a9 File: ../SV/interface.sv Line: 132
# ** Info: assertion passed
#    Time: 2890 ns Started: 2890 ns  Scope: tb.vif.a5 File: ../SV/interface.sv Line: 100
# ** Info: assertion passed
#    Time: 2910 ns Started: 2910 ns  Scope: tb.vif.a6 File: ../SV/interface.sv Line: 108
# ** Info: assertion passed
#    Time: 2910 ns Started: 2910 ns  Scope: tb.vif.a9 File: ../SV/interface.sv Line: 132
# ** Info: assertion passed
#    Time: 2910 ns Started: 2910 ns  Scope: tb.vif.a5 File: ../SV/interface.sv Line: 100
# ** Info: assertion passed
#    Time: 2930 ns Started: 2930 ns  Scope: tb.vif.a6 File: ../SV/interface.sv Line: 108
# ** Info: assertion passed
#    Time: 2930 ns Started: 2930 ns  Scope: tb.vif.a9 File: ../SV/interface.sv Line: 132
# ** Info: assertion passed
#    Time: 2930 ns Started: 2930 ns  Scope: tb.vif.a5 File: ../SV/interface.sv Line: 100
# [drv_ACCESS_WR] : [2950] : || [PSEL = 1],[PENABLE = 1],[PREADY = 1],[PWRITE = 1],[PADDR = 248],[PWDATA = 0],[PSLVERR = 0] ||
# ** Info: assertion passed
#    Time: 2950 ns Started: 2950 ns  Scope: tb.vif.a6 File: ../SV/interface.sv Line: 108
# ** Info: assertion passed
#    Time: 2950 ns Started: 2950 ns  Scope: tb.vif.a9 File: ../SV/interface.sv Line: 132
# ** Info: assertion passed
#    Time: 2950 ns Started: 2950 ns  Scope: tb.vif.a5 File: ../SV/interface.sv Line: 100
# [drv_ACCESS] : [2970] : || [PSEL = 1],[PENABLE = 1],[PREADY = 0],[PWRITE = 1],[PADDR = 248],[PWDATA = 2a7cdee8],[PRDATA = 0],[PSLVERR = 0] ||
# --------------------------------------------------------------------------------------------------------------------
# [mon] : [2970] : [count_m] = {21},|| [PSEL = 1],[PENABLE = 1],[PREADY = 1],[PWRITE = 1],[PADDR = 248],[PWDATA = 2a7cdee8],[PSLVERR = 0],[PSTRB = 2] ||
# [access_t]  : || [psel = 1],[penable = 0],[pready = 1] ||, at 2970
# || [PWRITE = 1],[PADDR = 2eb],[PWDATA = 75cfc4c4],[PSTRB = 0] ||
# [scb] : data received from monitor at 2970 count = 21
# ** Info: [2970] : PWRITE = 1,PSLVERR = 0,PADDR = 248,PWDATA = 2a7cdee8,PRDATA = 0,PSTRB = 2
#    Time: 2970 ns  Scope: file_pkg.apb_slave_transaction.display File: ../SV/apb_slave_transaction.sv Line: 20
# ________________________________
# [scb] : [2970] ==> [wr_count_scb] = {20}  write operation done successfully
# [pass_count = 1],[fail_count = 0]
# ** Info: assertion passed
#    Time: 2970 ns Started: 2970 ns  Scope: tb.vif.a7 File: ../SV/interface.sv Line: 115
# ** Info: assertion passed
#    Time: 2970 ns Started: 2970 ns  Scope: tb.vif.a6 File: ../SV/interface.sv Line: 108
# ** Info: assertion passed
#    Time: 2970 ns Started: 2970 ns  Scope: tb.vif.a5 File: ../SV/interface.sv Line: 100
# [drv_ACCESS] : [2990] : || [PSEL = 1],[PENABLE = 0],[PREADY = 0],[PWRITE = 1],[PADDR = 248],[PWDATA = 2a7cdee8],[PRDATA = 0],[PSLVERR = 0] ||
# --------------------------------------------------------------------------------------------------------------------
# [SETUP_t] : || [psel = 1],[penable = 0],[pready = 0],[PSTRB = 0] ||, at 2990
# ----------------------------------------------------------------------------------------------------------
# ** Info: assertion passed
#    Time: 2990 ns Started: 2970 ns  Scope: tb.vif.a3 File: ../SV/interface.sv Line: 84
# ** Info: assertion passed
#    Time: 2990 ns Started: 2990 ns  Scope: tb.vif.a5 File: ../SV/interface.sv Line: 100
# [drv_SETUP] : [3010] : || [PSEL = 1],[PENABLE = 0],[PREADY = 0],[PWRITE = 1],[PADDR = 2eb],[PWDATA = 75cfc4c4],[PRDATA = 0],[PSLVERR = 0] ||
# --------------------------------------------------------------------------------------------------------------------
# ** Info: assertion passed
#    Time: 3010 ns Started: 3010 ns  Scope: tb.vif.a5 File: ../SV/interface.sv Line: 100
# [drv_SETUP] : [3030] : || [PSEL = 1],[PENABLE = 1],[PREADY = 0],[PWRITE = 1],[PADDR = 2eb],[PWDATA = 75cfc4c4],[PRDATA = 0],[PSLVERR = 0] ||
# --------------------------------------------------------------------------------------------------------------------
# ** Info: assertion passed
#    Time: 3030 ns Started: 3030 ns  Scope: tb.vif.a6 File: ../SV/interface.sv Line: 108
# ** Info: assertion passed
#    Time: 3030 ns Started: 3030 ns  Scope: tb.vif.a9 File: ../SV/interface.sv Line: 132
# ** Info: assertion passed
#    Time: 3030 ns Started: 3030 ns  Scope: tb.vif.a5 File: ../SV/interface.sv Line: 100
# ** Info: assertion passed
#    Time: 3050 ns Started: 3050 ns  Scope: tb.vif.a6 File: ../SV/interface.sv Line: 108
# ** Info: assertion passed
#    Time: 3050 ns Started: 3050 ns  Scope: tb.vif.a9 File: ../SV/interface.sv Line: 132
# ** Info: assertion passed
#    Time: 3050 ns Started: 3050 ns  Scope: tb.vif.a5 File: ../SV/interface.sv Line: 100
# ** Info: assertion passed
#    Time: 3070 ns Started: 3070 ns  Scope: tb.vif.a6 File: ../SV/interface.sv Line: 108
# ** Info: assertion passed
#    Time: 3070 ns Started: 3070 ns  Scope: tb.vif.a9 File: ../SV/interface.sv Line: 132
# ** Info: assertion passed
#    Time: 3070 ns Started: 3070 ns  Scope: tb.vif.a5 File: ../SV/interface.sv Line: 100
# [drv_ACCESS_WR] : [3090] : || [PSEL = 1],[PENABLE = 1],[PREADY = 1],[PWRITE = 1],[PADDR = 2eb],[PWDATA = 0],[PSLVERR = 0] ||
# ** Info: assertion passed
#    Time: 3090 ns Started: 3090 ns  Scope: tb.vif.a6 File: ../SV/interface.sv Line: 108
# ** Info: assertion passed
#    Time: 3090 ns Started: 3090 ns  Scope: tb.vif.a9 File: ../SV/interface.sv Line: 132
# ** Info: assertion passed
#    Time: 3090 ns Started: 3090 ns  Scope: tb.vif.a5 File: ../SV/interface.sv Line: 100
# [drv_ACCESS] : [3110] : || [PSEL = 1],[PENABLE = 1],[PREADY = 0],[PWRITE = 1],[PADDR = 2eb],[PWDATA = 75cfc4c4],[PRDATA = 0],[PSLVERR = 0] ||
# --------------------------------------------------------------------------------------------------------------------
# [mon] : [3110] : [count_m] = {22},|| [PSEL = 1],[PENABLE = 1],[PREADY = 1],[PWRITE = 1],[PADDR = 2eb],[PWDATA = 75cfc4c4],[PSLVERR = 0],[PSTRB = 0] ||
# [access_t]  : || [psel = 1],[penable = 0],[pready = 1] ||, at 3110
# || [PWRITE = 1],[PADDR = 34b],[PWDATA = 9e965af6],[PSTRB = f] ||
# [scb] : data received from monitor at 3110 count = 22
# ** Info: [3110] : PWRITE = 1,PSLVERR = 0,PADDR = 2eb,PWDATA = 75cfc4c4,PRDATA = 0,PSTRB = 0
#    Time: 3110 ns  Scope: file_pkg.apb_slave_transaction.display File: ../SV/apb_slave_transaction.sv Line: 20
# ________________________________
# [scb] : [3110] ==> [wr_count_scb] = {21}  write operation done successfully
# [pass_count = 1],[fail_count = 0]
# ** Info: assertion passed
#    Time: 3110 ns Started: 3110 ns  Scope: tb.vif.a7 File: ../SV/interface.sv Line: 115
# ** Info: assertion passed
#    Time: 3110 ns Started: 3110 ns  Scope: tb.vif.a6 File: ../SV/interface.sv Line: 108
# ** Info: assertion passed
#    Time: 3110 ns Started: 3110 ns  Scope: tb.vif.a5 File: ../SV/interface.sv Line: 100
# [drv_ACCESS] : [3130] : || [PSEL = 1],[PENABLE = 0],[PREADY = 0],[PWRITE = 1],[PADDR = 2eb],[PWDATA = 75cfc4c4],[PRDATA = 0],[PSLVERR = 0] ||
# --------------------------------------------------------------------------------------------------------------------
# [SETUP_t] : || [psel = 1],[penable = 0],[pready = 0],[PSTRB = f] ||, at 3130
# ----------------------------------------------------------------------------------------------------------
# ** Info: assertion passed
#    Time: 3130 ns Started: 3110 ns  Scope: tb.vif.a3 File: ../SV/interface.sv Line: 84
# ** Info: assertion passed
#    Time: 3130 ns Started: 3130 ns  Scope: tb.vif.a5 File: ../SV/interface.sv Line: 100
# [drv_SETUP] : [3150] : || [PSEL = 1],[PENABLE = 0],[PREADY = 0],[PWRITE = 1],[PADDR = 34b],[PWDATA = 9e965af6],[PRDATA = 0],[PSLVERR = 0] ||
# --------------------------------------------------------------------------------------------------------------------
# ** Info: assertion passed
#    Time: 3150 ns Started: 3150 ns  Scope: tb.vif.a5 File: ../SV/interface.sv Line: 100
# [drv_SETUP] : [3170] : || [PSEL = 1],[PENABLE = 1],[PREADY = 0],[PWRITE = 1],[PADDR = 34b],[PWDATA = 9e965af6],[PRDATA = 0],[PSLVERR = 0] ||
# --------------------------------------------------------------------------------------------------------------------
# ** Info: assertion passed
#    Time: 3170 ns Started: 3170 ns  Scope: tb.vif.a6 File: ../SV/interface.sv Line: 108
# ** Info: assertion passed
#    Time: 3170 ns Started: 3170 ns  Scope: tb.vif.a9 File: ../SV/interface.sv Line: 132
# ** Info: assertion passed
#    Time: 3170 ns Started: 3170 ns  Scope: tb.vif.a5 File: ../SV/interface.sv Line: 100
# ** Info: assertion passed
#    Time: 3190 ns Started: 3190 ns  Scope: tb.vif.a6 File: ../SV/interface.sv Line: 108
# ** Info: assertion passed
#    Time: 3190 ns Started: 3190 ns  Scope: tb.vif.a9 File: ../SV/interface.sv Line: 132
# ** Info: assertion passed
#    Time: 3190 ns Started: 3190 ns  Scope: tb.vif.a5 File: ../SV/interface.sv Line: 100
# ** Info: assertion passed
#    Time: 3210 ns Started: 3210 ns  Scope: tb.vif.a6 File: ../SV/interface.sv Line: 108
# ** Info: assertion passed
#    Time: 3210 ns Started: 3210 ns  Scope: tb.vif.a9 File: ../SV/interface.sv Line: 132
# ** Info: assertion passed
#    Time: 3210 ns Started: 3210 ns  Scope: tb.vif.a5 File: ../SV/interface.sv Line: 100
# [drv_ACCESS_WR] : [3230] : || [PSEL = 1],[PENABLE = 1],[PREADY = 1],[PWRITE = 1],[PADDR = 34b],[PWDATA = 0],[PSLVERR = 0] ||
# ** Info: assertion passed
#    Time: 3230 ns Started: 3230 ns  Scope: tb.vif.a6 File: ../SV/interface.sv Line: 108
# ** Info: assertion passed
#    Time: 3230 ns Started: 3230 ns  Scope: tb.vif.a9 File: ../SV/interface.sv Line: 132
# ** Info: assertion passed
#    Time: 3230 ns Started: 3230 ns  Scope: tb.vif.a5 File: ../SV/interface.sv Line: 100
# [drv_ACCESS] : [3250] : || [PSEL = 1],[PENABLE = 1],[PREADY = 0],[PWRITE = 1],[PADDR = 34b],[PWDATA = 9e965af6],[PRDATA = 0],[PSLVERR = 0] ||
# --------------------------------------------------------------------------------------------------------------------
