# vsim -c -assertdebug -fsmdebug -coverage -msgmode both work.tb_opt "+sanity" -sv_seed 400 "+wait_state=1" "+no_of_wait_cycles=2" -do "add wave -r /*; run -all" 
# Start time: 12:19:01 on May 08,2025
# //  Questa Sim
# //  Version 2021.2_1 linux May 15 2021
# //
# //  Copyright 1991-2021 Mentor Graphics Corporation
# //  All Rights Reserved.
# //
# //  QuestaSim and its associated documentation contain trade
# //  secrets and commercial or financial information that are the property of
# //  Mentor Graphics Corporation and are privileged, confidential,
# //  and exempt from disclosure under the Freedom of Information Act,
# //  5 U.S.C. Section 552. Furthermore, this information
# //  is prohibited from disclosure under the Trade Secrets Act,
# //  18 U.S.C. Section 1905.
# //
# Loading sv_std.std
# Loading work.apb_slave_if(fast)
# Loading work.file_pkg(fast)
# ** Warning: (vsim-PLI-3691) Expected a system task, not a system function '$value$plusargs'.
#    Time: 0 ns  Iteration: 0  Region: /file_pkg::apb_slave_environment::new File: ../SV/apb_slave_environment.sv Line: 19
# ** Warning: (vsim-PLI-3691) Expected a system task, not a system function '$value$plusargs'.
#    Time: 0 ns  Iteration: 0  Region: /file_pkg::apb_slave_environment::new File: ../SV/apb_slave_environment.sv Line: 22
# Loading work.my_pkg(fast)
# Loading work.test_pkg(fast)
# Loading work.tb_sv_unit(fast)
# Loading work.tb(fast)
# Loading work.apb_slave_if(fast__2)
# ** Warning: (vsim-8441) Clocking block output vif.slave_cb.PRDATA is not legal in this
# or another expression.
#    Time: 0 ns  Iteration: 0  Region: /file_pkg File: ../SV/apb_slave_driver.sv Line: 27
# ** Warning: (vsim-8441) Clocking block output vif.slave_cb.PREADY is not legal in this
# or another expression.
#    Time: 0 ns  Iteration: 0  Region: /file_pkg File: ../SV/apb_slave_driver.sv Line: 26
# ** Warning: (vsim-8441) Clocking block output vif.slave_cb.PSLVERR is not legal in this
# or another expression.
#    Time: 0 ns  Iteration: 0  Region: /file_pkg File: ../SV/apb_slave_driver.sv Line: 28
# ** Warning: (vsim-8441) Clocking block output vif.slave_cb.PSLVERR is not legal in this
# or another expression.
#    Time: 0 ns  Iteration: 0  Region: /file_pkg File: ../SV/apb_slave_driver.sv Line: 28
# ** Warning: (vsim-8441) Clocking block output vif.slave_cb.PRDATA is not legal in this
# or another expression.
#    Time: 0 ns  Iteration: 0  Region: /file_pkg File: ../SV/apb_slave_driver.sv Line: 27
# ** Warning: (vsim-8441) Clocking block output vif.slave_cb.PREADY is not legal in this
# or another expression.
#    Time: 0 ns  Iteration: 0  Region: /file_pkg File: ../SV/apb_slave_driver.sv Line: 26
# ** Warning: (vsim-8441) Clocking block output vif.slave_cb.PSLVERR is not legal in this
# or another expression.
#    Time: 0 ns  Iteration: 0  Region: /file_pkg File: ../SV/apb_slave_driver.sv Line: 28
# ** Warning: (vsim-8441) Clocking block output vif.slave_cb.PREADY is not legal in this
# or another expression.
#    Time: 0 ns  Iteration: 0  Region: /file_pkg File: ../SV/apb_slave_driver.sv Line: 26
# ** Warning: (vsim-8441) Clocking block output vif.slave_cb.PSLVERR is not legal in this
# or another expression.
#    Time: 0 ns  Iteration: 0  Region: /file_pkg File: ../SV/apb_slave_driver.sv Line: 28
# ** Warning: (vsim-8441) Clocking block output vif.slave_cb.PREADY is not legal in this
# or another expression.
#    Time: 0 ns  Iteration: 0  Region: /file_pkg File: ../SV/apb_slave_driver.sv Line: 26
# ** Warning: (vsim-8441) Clocking block output vif.slave_cb.PSLVERR is not legal in this
# or another expression.
#    Time: 0 ns  Iteration: 0  Region: /file_pkg File: ../SV/apb_slave_driver.sv Line: 28
# ** Warning: (vsim-8441) Clocking block output vif.slave_cb.PRDATA is not legal in this
# or another expression.
#    Time: 0 ns  Iteration: 0  Region: /file_pkg File: ../SV/apb_slave_driver.sv Line: 27
# ** Warning: (vsim-8441) Clocking block output vif.slave_cb.PREADY is not legal in this
# or another expression.
#    Time: 0 ns  Iteration: 0  Region: /file_pkg File: ../SV/apb_slave_driver.sv Line: 26
# ** Warning: (vsim-8441) Clocking block output vif.slave_cb.PSLVERR is not legal in this
# or another expression.
#    Time: 0 ns  Iteration: 0  Region: /file_pkg File: ../SV/apb_slave_driver.sv Line: 28
# ** Warning: (vsim-8441) Clocking block output vif.slave_cb.PRDATA is not legal in this
# or another expression.
#    Time: 0 ns  Iteration: 0  Region: /file_pkg File: ../SV/apb_slave_driver.sv Line: 27
# ** Warning: (vsim-8441) Clocking block output vif.slave_cb.PREADY is not legal in this
# or another expression.
#    Time: 0 ns  Iteration: 0  Region: /file_pkg File: ../SV/apb_slave_driver.sv Line: 26
# ** Warning: (vsim-8441) Clocking block output vif.slave_cb.PSLVERR is not legal in this
# or another expression.
#    Time: 0 ns  Iteration: 0  Region: /file_pkg File: ../SV/apb_slave_driver.sv Line: 28
# ** Warning: (vsim-8441) Clocking block output vif.slave_cb.PRDATA is not legal in this
# or another expression.
#    Time: 0 ns  Iteration: 0  Region: /file_pkg File: ../SV/apb_slave_driver.sv Line: 27
# ** Warning: (vsim-8441) Clocking block output vif.slave_cb.PREADY is not legal in this
# or another expression.
#    Time: 0 ns  Iteration: 0  Region: /file_pkg File: ../SV/apb_slave_driver.sv Line: 26
# ** Warning: (vsim-8441) Clocking block output vif.master_cb.PENABLE is not legal in this
# or another expression.
#    Time: 0 ns  Iteration: 0  Region: /my_pkg File: ../testcases/testcase1.sv Line: 23
# ** Warning: (vsim-8441) Clocking block output vif.master_cb.PSEL is not legal in this
# or another expression.
#    Time: 0 ns  Iteration: 0  Region: /my_pkg File: ../testcases/testcase1.sv Line: 22
# ** Warning: (vsim-8441) Clocking block output vif.master_cb.PENABLE is not legal in this
# or another expression.
#    Time: 0 ns  Iteration: 0  Region: /my_pkg File: ../testcases/testcase1.sv Line: 23
# ** Warning: (vsim-8441) Clocking block output vif.master_cb.PSEL is not legal in this
# or another expression.
#    Time: 0 ns  Iteration: 0  Region: /my_pkg File: ../testcases/testcase1.sv Line: 22
# ** Warning: (vsim-8441) Clocking block output vif.master_cb.PENABLE is not legal in this
# or another expression.
#    Time: 0 ns  Iteration: 0  Region: /my_pkg File: ../testcases/testcase1.sv Line: 23
# ** Warning: (vsim-8441) Clocking block output vif.master_cb.PSEL is not legal in this
# or another expression.
#    Time: 0 ns  Iteration: 0  Region: /my_pkg File: ../testcases/testcase1.sv Line: 22
# ** Warning: (vsim-8441) Clocking block output vif.master_cb.PENABLE is not legal in this
# or another expression.
#    Time: 0 ns  Iteration: 0  Region: /my_pkg File: ../testcases/testcase1.sv Line: 23
# ** Warning: (vsim-8441) Clocking block output vif.master_cb.PSEL is not legal in this
# or another expression.
#    Time: 0 ns  Iteration: 0  Region: /my_pkg File: ../testcases/testcase1.sv Line: 22
# ** Warning: (vsim-8441) Clocking block output vif.master_cb.PENABLE is not legal in this
# or another expression.
#    Time: 0 ns  Iteration: 0  Region: /my_pkg File: ../testcases/testcase1.sv Line: 23
# ** Warning: (vsim-8441) Clocking block output vif.master_cb.PSEL is not legal in this
# or another expression.
#    Time: 0 ns  Iteration: 0  Region: /my_pkg File: ../testcases/testcase1.sv Line: 22
# ** Warning: (vsim-8441) Clocking block output vif.master_cb.PENABLE is not legal in this
# or another expression.
#    Time: 0 ns  Iteration: 0  Region: /my_pkg File: ../testcases/testcase1.sv Line: 23
# ** Warning: (vsim-8441) Clocking block output vif.master_cb.PSEL is not legal in this
# or another expression.
#    Time: 0 ns  Iteration: 0  Region: /my_pkg File: ../testcases/testcase1.sv Line: 22
# add wave -r /*
#  run -all
# [wait_state] : 1
# [no_of_wait_cycles] : 2
# [wait_state] : 1,no.of_wait_cycles : 2
# write task start
# [gen] : executes at 2
# [drv_IDLE] : [50] : PSEL = 0,PENABLE = 0,PREADY = 0,PWRITE = 0,PADDR = 0,PWDATA = 0,PRDATA = 0,PSLVERR = 0
# [IDLE_t] :psel = 0,penable = 0,pready = 0, at 50
# [drv_IDLE] : [70] : PSEL = 0,PENABLE = 0,PREADY = 0,PWRITE = 0,PADDR = 0,PWDATA = 0,PRDATA = 0,PSLVERR = 0
# [SETUP_t] :psel = 1,penable = 0,pready = 0, at 70
# [drv_IDLE] : [90] : PSEL = 1,PENABLE = 0,PREADY = 0,PWRITE = 1,PADDR = 8,PWDATA = ca09eb84,PRDATA = 0,PSLVERR = 0
# [drv_SETUP] : [110] : PSEL = 1,PENABLE = 1,PREADY = 0,PWRITE = 1,PADDR = 8,PWDATA = ca09eb84,PRDATA = 0,PSLVERR = 0
# [drv_ACCESS_WR] : [170] : PSEL = 1,PENABLE = 1,PREADY = 1,PWRITE = 1,PADDR = 8,PWDATA = x,PSLVERR = 0
# [drv_ACCESS] : [190] : PSEL = 1,PENABLE = 1,PREADY = 0,PWRITE = 1,PADDR = 8,PWDATA = ca09eb84,PRDATA = 0,PSLVERR = 0
# [mon] : [190] : PSEL = 1,PENABLE = 1,PREADY = 1,PWRITE = 1,PADDR = 8,PWDATA = ca09eb84,PSLVERR = 0
# [access_t]  :psel = 1,penable = 0,pready = 1, at 190
# read task start
# [scb] : data received from monitor at 190 count = 1
# ** Info: [190] : PWRITE = 1,PSLVERR = 0,PADDR = 8,PWDATA = ca09eb84,PRDATA = 0,PSTRB = 0
#    Time: 190 ns  Scope: file_pkg.apb_slave_transaction.display File: ../SV/apb_slave_transaction.sv Line: 18
# ________________________________
# [scb] : [190] write operation done successfully
# [drv_ACCESS] : [210] : PSEL = 0,PENABLE = 0,PREADY = 0,PWRITE = 1,PADDR = 8,PWDATA = ca09eb84,PRDATA = 0,PSLVERR = 0
# [IDLE_t] :psel = 0,penable = 0,pready = 0, at 210
# [drv_IDLE] : [230] : PSEL = 0,PENABLE = 0,PREADY = 0,PWRITE = 1,PADDR = 8,PWDATA = ca09eb84,PRDATA = 0,PSLVERR = 0
# [SETUP_t] :psel = 1,penable = 0,pready = 0, at 230
# [drv_IDLE] : [250] : PSEL = 1,PENABLE = 0,PREADY = 0,PWRITE = 0,PADDR = 8,PWDATA = ca09eb84,PRDATA = 0,PSLVERR = 0
# [drv_SETUP] : [270] : PSEL = 1,PENABLE = 1,PREADY = 0,PWRITE = 0,PADDR = 8,PWDATA = ca09eb84,PRDATA = 0,PSLVERR = 0
# [drv_ACCESS_RD] : [330] : PSEL = 1,PENABLE = 1,PREADY = 1,PWRITE = 0,PADDR = 8,PRDATA = ca09eb84,PSLVERR = 0
# [drv_ACCESS] : [350] : PSEL = 1,PENABLE = 1,PREADY = 0,PWRITE = 0,PADDR = 8,PWDATA = ca09eb84,PRDATA = ca09eb84,PSLVERR = 0
# [mon] : [350] : PSEL = 1,PENABLE = 1,PREADY = 1,PWRITE = 0,PADDR = 8,PRDATA = ca09eb84,PSLVERR = 0
# [access_t]  :psel = 1,penable = 0,pready = 1, at 350
# [scb] : data received from monitor at 350 count = 2
# ** Info: [350] : PWRITE = 0,PSLVERR = 0,PADDR = 8,PWDATA = ca09eb84,PRDATA = ca09eb84,PSTRB = 0
#    Time: 350 ns  Scope: file_pkg.apb_slave_transaction.display File: ../SV/apb_slave_transaction.sv Line: 18
# ________________________________
# ** Info: [scb] : [350]  TESTCASE PASSED at PADDR = 8,actual_data = ca09eb84,expected_data = ca09eb84
#    Time: 350 ns  Scope: file_pkg.slave_scoreboard.slave_scoreboard__1.run File: ../SV/slave_scoreboard.sv Line: 36
# [drv_ACCESS] : [370] : PSEL = 0,PENABLE = 0,PREADY = 0,PWRITE = 0,PADDR = 8,PWDATA = ca09eb84,PRDATA = ca09eb84,PSLVERR = 0
# [drv_IDLE] : [390] : PSEL = 0,PENABLE = 0,PREADY = 0,PWRITE = 0,PADDR = 8,PWDATA = ca09eb84,PRDATA = ca09eb84,PSLVERR = 0
# [drv_IDLE] : [410] : PSEL = 0,PENABLE = 0,PREADY = 0,PWRITE = 0,PADDR = 8,PWDATA = ca09eb84,PRDATA = ca09eb84,PSLVERR = 0
# [drv_IDLE] : [430] : PSEL = 0,PENABLE = 0,PREADY = 0,PWRITE = 0,PADDR = 8,PWDATA = ca09eb84,PRDATA = ca09eb84,PSLVERR = 0
# [drv_IDLE] : [450] : PSEL = 0,PENABLE = 0,PREADY = 0,PWRITE = 0,PADDR = 8,PWDATA = ca09eb84,PRDATA = ca09eb84,PSLVERR = 0
# [drv_IDLE] : [470] : PSEL = 0,PENABLE = 0,PREADY = 0,PWRITE = 0,PADDR = 8,PWDATA = ca09eb84,PRDATA = ca09eb84,PSLVERR = 0
# [drv_IDLE] : [490] : PSEL = 0,PENABLE = 0,PREADY = 0,PWRITE = 0,PADDR = 8,PWDATA = ca09eb84,PRDATA = ca09eb84,PSLVERR = 0
# [drv_IDLE] : [510] : PSEL = 0,PENABLE = 0,PREADY = 0,PWRITE = 0,PADDR = 8,PWDATA = ca09eb84,PRDATA = ca09eb84,PSLVERR = 0
# [drv_IDLE] : [530] : PSEL = 0,PENABLE = 0,PREADY = 0,PWRITE = 0,PADDR = 8,PWDATA = ca09eb84,PRDATA = ca09eb84,PSLVERR = 0
# [drv_IDLE] : [550] : PSEL = 0,PENABLE = 0,PREADY = 0,PWRITE = 0,PADDR = 8,PWDATA = ca09eb84,PRDATA = ca09eb84,PSLVERR = 0
# [drv_IDLE] : [570] : PSEL = 0,PENABLE = 0,PREADY = 0,PWRITE = 0,PADDR = 8,PWDATA = ca09eb84,PRDATA = ca09eb84,PSLVERR = 0
# [drv_IDLE] : [590] : PSEL = 0,PENABLE = 0,PREADY = 0,PWRITE = 0,PADDR = 8,PWDATA = ca09eb84,PRDATA = ca09eb84,PSLVERR = 0
# ** Note: $finish    : ../top/tb.sv(28)
#    Time: 600 ns  Iteration: 0  Instance: /tb
# End time: 12:19:07 on May 08,2025, Elapsed time: 0:00:06
# Errors: 0, Warnings: 33
